***BUSMASTER Ver 3.2.2***
***PROTOCOL CAN***
***NOTE: PLEASE DO NOT EDIT THIS DOCUMENT***
***[START LOGGING SESSION]***
***START DATE AND TIME 18:2:2019 12:40:23:444***
***HEX***
***SYSTEM MODE***
***START CHANNEL BAUD RATE***
***CHANNEL 1 - Kvaser - Kvaser Leaf Light v2 #0 (Channel 0), Serial Number- 0, Firmware- 0x00000187 0x00040004 - 250000 bps***
***END CHANNEL BAUD RATE***
***START DATABASE FILES***
***END DATABASE FILES***
***<Time><Tx/Rx><Channel><CAN ID><Type><DLC><DataBytes>***
12:40:23:4680 Rx 1 0x18B s 8 01 40 16 00 0F 00 00 00 
12:40:23:4680 Rx 1 0x18C s 8 15 3D 20 13 04 00 FF FF 
12:40:23:4690 Rx 1 0x18D s 8 55 26 BF CC 8F FF 69 FF 
12:40:23:4690 Rx 1 0x18E s 8 CD F3 D5 3E 17 00 77 00 
12:40:23:5340 Rx 1 0x18B s 8 01 40 0B 00 17 00 00 00 
12:40:23:5340 Rx 1 0x18C s 8 1A 3D 0E 13 2E 00 F2 FF 
12:40:23:5350 Rx 1 0x18D s 8 45 26 B3 CC B0 FF 95 FF 
12:40:23:5350 Rx 1 0x18E s 8 B8 F3 D1 3E 0B 00 38 00 
12:40:23:5940 Rx 1 0x181 s 7 00 00 00 00 00 00 00 
12:40:23:5940 Rx 1 0x182 s 3 00 88 FE 
12:40:23:5950 Rx 1 0x184 s 8 40 94 BE BC 40 94 BE BC 
12:40:23:5950 Rx 1 0x185 s 4 DF B7 D4 3F 
12:40:23:5950 Rx 1 0x186 s 8 40 94 BE BC 40 94 BE BC 
12:40:23:5960 Rx 1 0x188 s 8 58 01 7D FA 09 FE 00 00 
12:40:23:5960 Rx 1 0x189 s 4 02 00 00 00 
12:40:23:6000 Rx 1 0x18B s 8 01 40 0B 00 17 00 00 00 
12:40:23:6000 Rx 1 0x18C s 8 1A 3D 0E 13 2E 00 F2 FF 
12:40:23:6010 Rx 1 0x18D s 8 45 26 B3 CC B0 FF 95 FF 
12:40:23:6010 Rx 1 0x18E s 8 B8 F3 D1 3E 0B 00 38 00 
12:40:23:6660 Rx 1 0x18B s 8 01 40 1C 00 01 00 00 00 
12:40:23:6660 Rx 1 0x18C s 8 1E 3D 04 13 12 00 FB FF 
12:40:23:6670 Rx 1 0x18D s 8 44 26 B2 CC B6 FF 9C FF 
12:40:23:6670 Rx 1 0x18E s 8 CD F3 D5 3E 17 00 79 00 
12:40:23:7320 Rx 1 0x18B s 8 01 40 21 00 16 00 00 00 
12:40:23:7320 Rx 1 0x18C s 8 18 3D 16 13 35 00 F0 FF 
12:40:23:7330 Rx 1 0x18D s 8 4B 26 B7 CC C2 FF AD FF 
12:40:23:7330 Rx 1 0x18E s 8 BF F3 D2 3E 14 00 6A 00 
12:40:23:7940 Rx 1 0x181 s 7 00 00 00 00 00 00 00 
12:40:23:7940 Rx 1 0x182 s 3 00 86 FE 
12:40:23:7950 Rx 1 0x184 s 8 80 8E 9A BC 80 8E 9A BC 
12:40:23:7950 Rx 1 0x185 s 4 5A 91 D4 3F 
12:40:23:7950 Rx 1 0x186 s 8 80 8E 9A BC 80 8E 9A BC 
12:40:23:7960 Rx 1 0x188 s 8 5A 01 7C FA 07 FE 00 00 
12:40:23:7960 Rx 1 0x189 s 4 00 00 01 00 
12:40:23:7980 Rx 1 0x18B s 8 01 40 21 00 16 00 00 00 
12:40:23:7980 Rx 1 0x18C s 8 18 3D 16 13 35 00 F0 FF 
12:40:23:7990 Rx 1 0x18D s 8 4B 26 B7 CC C2 FF AD FF 
12:40:23:7990 Rx 1 0x18E s 8 BF F3 D2 3E 14 00 6A 00 
12:40:23:8640 Rx 1 0x18B s 8 01 40 09 00 31 00 00 00 
12:40:23:8640 Rx 1 0x18C s 8 17 3D 17 13 30 00 F1 FF 
12:40:23:8650 Rx 1 0x18D s 8 4B 26 B7 CC BE FF A8 FF 
12:40:23:8650 Rx 1 0x18E s 8 D6 F3 D6 3E 15 00 6E 00 
12:40:23:9300 Rx 1 0x18B s 8 01 40 14 00 1A 00 00 00 
12:40:23:9300 Rx 1 0x18C s 8 1A 3D 0E 13 20 00 F6 FF 
12:40:23:9310 Rx 1 0x18D s 8 58 26 C1 CC BD FF A7 FF 
12:40:23:9310 Rx 1 0x18E s 8 B3 F3 D0 3E 0E 00 48 00 
12:40:23:9940 Rx 1 0x181 s 7 00 00 00 00 00 00 00 
12:40:23:9940 Rx 1 0x182 s 3 00 89 FE 
12:40:23:9950 Rx 1 0x184 s 8 20 D5 D0 BC 20 D5 D0 BC 
12:40:23:9950 Rx 1 0x185 s 4 DA 65 D5 3F 
12:40:23:9950 Rx 1 0x186 s 8 20 D5 D0 BC 20 D5 D0 BC 
12:40:23:9960 Rx 1 0x188 s 8 58 01 7C FA 0B FE 00 00 
12:40:23:9960 Rx 1 0x189 s 4 01 00 01 00 
12:40:23:9970 Rx 1 0x18B s 8 01 40 14 00 1A 00 00 00 
12:40:23:9970 Rx 1 0x18C s 8 1A 3D 0E 13 20 00 F6 FF 
12:40:23:9980 Rx 1 0x18D s 8 58 26 C1 CC BD FF A7 FF 
12:40:23:9980 Rx 1 0x18E s 8 B3 F3 D0 3E 0E 00 48 00 
12:40:24:0620 Rx 1 0x18B s 8 01 40 00 00 17 00 00 00 
12:40:24:0620 Rx 1 0x18C s 8 1A 3D 0F 13 1C 00 F8 FF 
12:40:24:0630 Rx 1 0x18D s 8 4F 26 BA CC BE FF A8 FF 
12:40:24:0630 Rx 1 0x18E s 8 AB F3 CE 3E 13 00 64 00 
12:40:24:1280 Rx 1 0x18B s 8 01 40 11 00 1A 00 00 00 
12:40:24:1280 Rx 1 0x18C s 8 19 3D 11 13 45 00 EB FF 
12:40:24:1290 Rx 1 0x18D s 8 49 26 B6 CC BE FF A8 FF 
12:40:24:1290 Rx 1 0x18E s 8 B1 F3 CF 3E 12 00 5C 00 
12:40:24:1940 Rx 1 0x181 s 7 00 00 00 00 00 00 00 
12:40:24:1940 Rx 1 0x182 s 3 00 87 FE 
12:40:24:1950 Rx 1 0x184 s 8 60 A3 BF BC 60 A3 BF BC 
12:40:24:1950 Rx 1 0x185 s 4 C7 CD D4 3F 
12:40:24:1950 Rx 1 0x186 s 8 60 A3 BF BC 60 A3 BF BC 
12:40:24:1960 Rx 1 0x188 s 8 5B 01 7B FA 09 FE 00 00 
12:40:24:1960 Rx 1 0x189 s 4 00 00 00 00 
12:40:24:1970 Rx 1 0x18B s 8 01 40 11 00 1A 00 00 00 
12:40:24:1970 Rx 1 0x18C s 8 19 3D 11 13 45 00 EB FF 
12:40:24:1980 Rx 1 0x18D s 8 49 26 B6 CC BE FF A8 FF 
12:40:24:2600 Rx 1 0x18B s 8 01 40 01 00 12 00 00 00 
12:40:24:2600 Rx 1 0x18C s 8 17 3D 1A 13 3C 00 EE FF 
12:40:24:2610 Rx 1 0x18D s 8 58 26 C1 CC C5 FF B1 FF 
12:40:24:2610 Rx 1 0x18E s 8 B6 F3 D0 3E 14 00 66 00 
12:40:24:3260 Rx 1 0x18B s 8 01 40 06 00 05 00 00 00 
12:40:24:3260 Rx 1 0x18C s 8 12 3D 2A 13 24 00 F5 FF 
12:40:24:3270 Rx 1 0x18D s 8 45 26 B3 CC B6 FF 9C FF 
12:40:24:3270 Rx 1 0x18E s 8 B9 F3 D1 3E 13 00 61 00 
12:40:24:3920 Rx 1 0x18B s 8 01 40 06 00 05 00 00 00 
12:40:24:3920 Rx 1 0x18C s 8 12 3D 2A 13 24 00 F5 FF 
12:40:24:3930 Rx 1 0x18D s 8 45 26 B3 CC B6 FF 9C FF 
12:40:24:3930 Rx 1 0x18E s 8 B9 F3 D1 3E 13 00 61 00 
12:40:24:3940 Rx 1 0x181 s 7 00 00 00 00 00 00 00 
12:40:24:3940 Rx 1 0x182 s 3 00 86 FE 
12:40:24:3950 Rx 1 0x184 s 8 C0 F4 3F BC C0 F4 3F BC 
12:40:24:3950 Rx 1 0x185 s 4 BD B6 D3 3F 
12:40:24:3950 Rx 1 0x186 s 8 C0 F4 3F BC C0 F4 3F BC 
12:40:24:3960 Rx 1 0x188 s 8 5A 01 7C FA 08 FE 00 00 
12:40:24:3960 Rx 1 0x189 s 4 00 00 01 00 
12:40:24:4580 Rx 1 0x18B s 8 01 40 0C 00 12 00 00 00 
12:40:24:4580 Rx 1 0x18C s 8 15 3D 20 13 27 00 F4 FF 
12:40:24:4590 Rx 1 0x18D s 8 44 26 B2 CC BD FF A6 FF 
12:40:24:4590 Rx 1 0x18E s 8 D9 F3 D7 3E 10 00 55 00 
12:40:24:5240 Rx 1 0x18B s 8 01 40 0E 00 05 00 00 00 
12:40:24:5240 Rx 1 0x18C s 8 1C 3D 08 13 37 00 EF FF 
12:40:24:5250 Rx 1 0x18D s 8 46 26 B3 CC CE FF BD FF 
12:40:24:5250 Rx 1 0x18E s 8 B7 F3 D1 3E 0D 00 43 00 
12:40:24:5900 Rx 1 0x18B s 8 01 40 0E 00 05 00 00 00 
12:40:24:5900 Rx 1 0x18C s 8 1C 3D 08 13 37 00 EF FF 
12:40:24:5910 Rx 1 0x18D s 8 46 26 B3 CC CE FF BD FF 
12:40:24:5910 Rx 1 0x18E s 8 B7 F3 D1 3E 0D 00 43 00 
12:40:24:5940 Rx 1 0x181 s 7 00 00 00 00 00 00 00 
12:40:24:5940 Rx 1 0x182 s 3 00 87 FE 
12:40:24:5950 Rx 1 0x184 s 8 E0 53 D1 BC E0 53 D1 BC 
12:40:24:5950 Rx 1 0x185 s 4 D5 F2 D4 3F 
12:40:24:5950 Rx 1 0x186 s 8 E0 53 D1 BC E0 53 D1 BC 
12:40:24:5960 Rx 1 0x188 s 8 59 01 7B FA 09 FE 00 00 
12:40:24:5960 Rx 1 0x189 s 4 01 00 01 00 
12:40:24:6560 Rx 1 0x18B s 8 01 40 15 00 13 00 00 00 
12:40:24:6560 Rx 1 0x18C s 8 14 3D 21 13 28 00 F4 FF 
12:40:24:6570 Rx 1 0x18D s 8 4E 26 B9 CC B3 FF 99 FF 
12:40:24:6570 Rx 1 0x18E s 8 BD F3 D2 3E 14 00 67 00 
12:40:24:7220 Rx 1 0x18B s 8 01 40 06 00 13 00 00 00 
12:40:24:7220 Rx 1 0x18C s 8 18 3D 15 13 21 00 F6 FF 
12:40:24:7230 Rx 1 0x18D s 8 4D 26 B9 CC C1 FF AB FF 
12:40:24:7230 Rx 1 0x18E s 8 BD F3 D2 3E 10 00 56 00 
12:40:24:7880 Rx 1 0x18B s 8 01 40 06 00 13 00 00 00 
12:40:24:7880 Rx 1 0x18C s 8 18 3D 15 13 21 00 F6 FF 
12:40:24:7890 Rx 1 0x18D s 8 4D 26 B9 CC C1 FF AB FF 
12:40:24:7890 Rx 1 0x18E s 8 BD F3 D2 3E 10 00 56 00 
12:40:24:7940 Rx 1 0x181 s 7 00 00 00 00 00 00 00 
12:40:24:7940 Rx 1 0x182 s 3 00 89 FE 
12:40:24:7950 Rx 1 0x184 s 8 60 CB A7 BC 60 CB A7 BC 
12:40:24:7950 Rx 1 0x185 s 4 A2 B0 D4 3F 
12:40:24:7950 Rx 1 0x186 s 8 60 CB A7 BC 60 CB A7 BC 
12:40:24:7960 Rx 1 0x188 s 8 5A 01 7D FA 09 FE 00 00 
12:40:24:7960 Rx 1 0x189 s 4 00 00 00 00 
12:40:24:8540 Rx 1 0x18B s 8 01 40 07 00 09 00 00 00 
12:40:24:8540 Rx 1 0x18C s 8 19 3D 12 13 37 00 EF FF 
12:40:24:8550 Rx 1 0x18D s 8 4C 26 B7 CC CB FF B8 FF 
12:40:24:8550 Rx 1 0x18E s 8 C0 F3 D2 3E 11 00 59 00 
12:40:24:9200 Rx 1 0x18B s 8 01 40 0B 00 13 00 00 00 
12:40:24:9200 Rx 1 0x18C s 8 19 3D 11 13 3A 00 EE FF 
12:40:24:9210 Rx 1 0x18D s 8 49 26 B6 CC B5 FF 9C FF 
12:40:24:9210 Rx 1 0x18E s 8 C8 F3 D4 3E 13 00 66 00 
12:40:24:9860 Rx 1 0x18B s 8 01 40 0B 00 13 00 00 00 
12:40:24:9860 Rx 1 0x18C s 8 19 3D 11 13 3A 00 EE FF 
12:40:24:9870 Rx 1 0x18D s 8 49 26 B6 CC B5 FF 9C FF 
12:40:24:9870 Rx 1 0x18E s 8 C8 F3 D4 3E 13 00 66 00 
12:40:24:9940 Rx 1 0x181 s 7 00 00 00 00 00 00 00 
12:40:24:9940 Rx 1 0x182 s 3 00 89 FE 
12:40:24:9950 Rx 1 0x184 s 8 E0 B4 A2 BC E0 B4 A2 BC 
12:40:24:9950 Rx 1 0x185 s 4 0C 9A D4 3F 
12:40:24:9950 Rx 1 0x186 s 8 E0 B4 A2 BC E0 B4 A2 BC 
12:40:24:9960 Rx 1 0x188 s 8 59 01 7C FA 0B FE 00 00 
12:40:24:9960 Rx 1 0x189 s 4 00 00 00 00 
12:40:25:0520 Rx 1 0x18B s 8 01 40 0E 00 09 00 00 00 
12:40:25:0520 Rx 1 0x18C s 8 19 3D 12 13 3A 00 EE FF 
12:40:25:0530 Rx 1 0x18D s 8 43 26 B1 CC C2 FF AC FF 
12:40:25:0530 Rx 1 0x18E s 8 CB F3 D4 3E 11 00 5B 00 
12:40:25:1180 Rx 1 0x18B s 8 01 40 06 00 17 00 00 00 
12:40:25:1180 Rx 1 0x18C s 8 19 3D 11 13 3B 00 EE FF 
12:40:25:1190 Rx 1 0x18D s 8 4A 26 B6 CC C5 FF B1 FF 
12:40:25:1190 Rx 1 0x18E s 8 C3 F3 D3 3E 10 00 57 00 
12:40:25:1840 Rx 1 0x18B s 8 01 40 06 00 17 00 00 00 
12:40:25:1840 Rx 1 0x18C s 8 19 3D 11 13 3B 00 EE FF 
12:40:25:1850 Rx 1 0x18D s 8 4A 26 B6 CC C5 FF B1 FF 
12:40:25:1850 Rx 1 0x18E s 8 C3 F3 D3 3E 10 00 57 00 
12:40:25:1940 Rx 1 0x181 s 7 00 00 00 00 00 00 00 
12:40:25:1940 Rx 1 0x182 s 3 00 88 FE 
12:40:25:1950 Rx 1 0x184 s 8 C0 4A AB BC C0 4A AB BC 
12:40:25:1950 Rx 1 0x185 s 4 EA A8 D4 3F 
12:40:25:1950 Rx 1 0x186 s 8 C0 4A AB BC C0 4A AB BC 
12:40:25:1960 Rx 1 0x188 s 8 5A 01 7C FA 09 FE 00 00 
12:40:25:1960 Rx 1 0x189 s 4 00 00 01 00 
12:40:25:2500 Rx 1 0x18B s 8 01 40 07 00 0B 00 00 00 
12:40:25:2500 Rx 1 0x18C s 8 1A 3D 0E 13 38 00 EF FF 
12:40:25:2510 Rx 1 0x18D s 8 4D 26 B8 CC BB FF A4 FF 
12:40:25:2510 Rx 1 0x18E s 8 CA F3 D4 3E 11 00 58 00 
12:40:25:3160 Rx 1 0x18B s 8 01 40 0E 00 17 00 00 00 
12:40:25:3160 Rx 1 0x18C s 8 14 3D 23 13 2C 00 F3 FF 
12:40:25:3170 Rx 1 0x18D s 8 46 26 B3 CC BC FF A4 FF 
12:40:25:3170 Rx 1 0x18E s 8 D2 F3 D6 3E 11 00 58 00 
12:40:25:3820 Rx 1 0x18B s 8 01 40 0E 00 17 00 00 00 
12:40:25:3820 Rx 1 0x18C s 8 14 3D 23 13 2C 00 F3 FF 
12:40:25:3830 Rx 1 0x18D s 8 46 26 B3 CC BC FF A4 FF 
12:40:25:3830 Rx 1 0x18E s 8 D2 F3 D6 3E 11 00 58 00 
12:40:25:3940 Rx 1 0x181 s 7 00 00 00 00 00 00 00 
12:40:25:3940 Rx 1 0x182 s 3 00 88 FE 
12:40:25:3950 Rx 1 0x184 s 8 C0 50 30 BC C0 50 30 BC 
12:40:25:3950 Rx 1 0x185 s 4 09 C2 D3 3F 
12:40:25:3950 Rx 1 0x186 s 8 C0 50 30 BC C0 50 30 BC 
12:40:25:3960 Rx 1 0x188 s 8 59 01 7D FA 09 FE 00 00 
12:40:25:3960 Rx 1 0x189 s 4 01 00 01 00 
12:40:25:4480 Rx 1 0x18B s 8 01 40 0E 00 0B 00 00 00 
12:40:25:4480 Rx 1 0x18C s 8 18 3D 16 13 3E 00 ED FF 
12:40:25:4490 Rx 1 0x18D s 8 4F 26 BA CC C5 FF B1 FF 
12:40:25:4490 Rx 1 0x18E s 8 C4 F3 D3 3E 12 00 61 00 
12:40:25:5140 Rx 1 0x18B s 8 01 40 0E 00 0B 00 00 00 
12:40:25:5140 Rx 1 0x18C s 8 18 3D 16 13 3E 00 ED FF 
12:40:25:5150 Rx 1 0x18D s 8 4F 26 BA CC C5 FF B1 FF 
12:40:25:5150 Rx 1 0x18E s 8 C4 F3 D3 3E 12 00 61 00 
12:40:25:5800 Rx 1 0x18B s 8 01 40 0C 00 1A 00 00 00 
12:40:25:5800 Rx 1 0x18C s 8 19 3D 14 13 2E 00 F2 FF 
12:40:25:5810 Rx 1 0x18D s 8 4D 26 B8 CC BB FF A4 FF 
12:40:25:5810 Rx 1 0x18E s 8 CB F3 D4 3E 12 00 60 00 
12:40:25:5940 Rx 1 0x181 s 7 00 00 00 00 00 00 00 
12:40:25:5940 Rx 1 0x182 s 3 00 87 FE 
12:40:25:5950 Rx 1 0x184 s 8 40 D0 99 BC 40 D0 99 BC 
12:40:25:5950 Rx 1 0x185 s 4 F4 9B D4 3F 
12:40:25:5950 Rx 1 0x186 s 8 40 D0 99 BC 40 D0 99 BC 
12:40:25:5960 Rx 1 0x188 s 8 59 01 7C FA 09 FE 00 00 
12:40:25:5960 Rx 1 0x189 s 4 00 00 01 00 
12:40:25:6460 Rx 1 0x18B s 8 01 40 0F 00 0E 00 00 00 
12:40:25:6460 Rx 1 0x18C s 8 17 3D 1A 13 2A 00 F3 FF 
12:40:25:6470 Rx 1 0x18D s 8 4B 26 B7 CC BC FF A5 FF 
12:40:25:6470 Rx 1 0x18E s 8 D0 F3 D5 3E 12 00 61 00 
12:40:25:7120 Rx 1 0x18B s 8 01 40 0F 00 0E 00 00 00 
12:40:25:7120 Rx 1 0x18C s 8 17 3D 1A 13 2A 00 F3 FF 
12:40:25:7130 Rx 1 0x18D s 8 4B 26 B7 CC BC FF A5 FF 
12:40:25:7130 Rx 1 0x18E s 8 D0 F3 D5 3E 12 00 61 00 
12:40:25:7780 Rx 1 0x18B s 8 01 40 10 00 02 00 00 00 
12:40:25:7780 Rx 1 0x18C s 8 18 3D 16 13 28 00 F4 FF 
12:40:25:7790 Rx 1 0x18D s 8 57 26 C0 CC B3 FF 99 FF 
12:40:25:7790 Rx 1 0x18E s 8 B7 F3 D0 3E 14 00 69 00 
12:40:25:7940 Rx 1 0x181 s 7 00 00 00 00 00 00 00 
12:40:25:7940 Rx 1 0x182 s 3 00 88 FE 
12:40:25:7950 Rx 1 0x184 s 8 A0 68 AB BC A0 68 AB BC 
12:40:25:7950 Rx 1 0x185 s 4 5C 07 D5 3F 
12:40:25:7950 Rx 1 0x186 s 8 A0 68 AB BC A0 68 AB BC 
12:40:25:7960 Rx 1 0x188 s 8 59 01 7C FA 0A FE 00 00 
12:40:25:7960 Rx 1 0x189 s 4 01 00 01 00 
12:40:25:8440 Rx 1 0x18B s 8 01 40 0F 00 15 00 00 00 
12:40:25:8440 Rx 1 0x18C s 8 14 3D 24 13 32 00 F1 FF 
12:40:25:8450 Rx 1 0x18D s 8 5A 26 C3 CC C1 FF AC FF 
12:40:25:8450 Rx 1 0x18E s 8 BC F3 D1 3E 13 00 65 00 
12:40:25:9100 Rx 1 0x18B s 8 01 40 0F 00 15 00 00 00 
12:40:25:9100 Rx 1 0x18C s 8 14 3D 24 13 32 00 F1 FF 
12:40:25:9110 Rx 1 0x18D s 8 5A 26 C3 CC C1 FF AC FF 
12:40:25:9110 Rx 1 0x18E s 8 BC F3 D1 3E 13 00 65 00 
12:40:25:9760 Rx 1 0x18B s 8 01 40 12 00 08 00 00 00 
12:40:25:9760 Rx 1 0x18C s 8 15 3D 21 13 31 00 F1 FF 
12:40:25:9770 Rx 1 0x18D s 8 51 26 BC CC B9 FF A1 FF 
12:40:25:9770 Rx 1 0x18E s 8 C1 F3 D2 3E 13 00 64 00 
12:40:25:9940 Rx 1 0x181 s 7 00 00 00 00 00 00 00 
12:40:25:9940 Rx 1 0x182 s 3 00 89 FE 
12:40:25:9950 Rx 1 0x184 s 8 80 5E 74 BC 80 5E 74 BC 
12:40:25:9950 Rx 1 0x185 s 4 6B 62 D4 3F 
12:40:25:9950 Rx 1 0x186 s 8 80 5E 74 BC 80 5E 74 BC 
12:40:25:9960 Rx 1 0x188 s 8 59 01 7E FA 09 FE 00 00 
12:40:25:9960 Rx 1 0x189 s 4 00 00 01 00 
12:40:26:0420 Rx 1 0x18B s 8 01 40 05 00 15 00 00 00 
12:40:26:0420 Rx 1 0x18C s 8 1D 3D 05 13 3A 00 EE FF 
12:40:26:0430 Rx 1 0x18D s 8 4A 26 B6 CC C6 FF B2 FF 
12:40:26:0430 Rx 1 0x18E s 8 C1 F3 D2 3E 10 00 52 00 
12:40:26:1080 Rx 1 0x18B s 8 01 40 05 00 15 00 00 00 
12:40:26:1080 Rx 1 0x18C s 8 1D 3D 05 13 3A 00 EE FF 
12:40:26:1090 Rx 1 0x18D s 8 4A 26 B6 CC C6 FF B2 FF 
12:40:26:1090 Rx 1 0x18E s 8 C1 F3 D2 3E 10 00 52 00 
12:40:26:1740 Rx 1 0x18B s 8 01 40 07 00 09 00 00 00 
12:40:26:1740 Rx 1 0x18C s 8 17 3D 18 13 2C 00 F3 FF 
12:40:26:1750 Rx 1 0x18D s 8 4E 26 BA CC B9 FF A1 FF 
12:40:26:1750 Rx 1 0x18E s 8 C8 F3 D4 3E 13 00 62 00 
12:40:26:1940 Rx 1 0x181 s 7 00 00 00 00 00 00 00 
12:40:26:1940 Rx 1 0x182 s 3 00 89 FE 
12:40:26:1950 Rx 1 0x184 s 8 60 08 8D BC 60 08 8D BC 
12:40:26:1950 Rx 1 0x185 s 4 4F 85 D4 3F 
12:40:26:1950 Rx 1 0x186 s 8 60 08 8D BC 60 08 8D BC 
12:40:26:1960 Rx 1 0x188 s 8 5A 01 7C FA 0A FE 00 00 
12:40:26:1960 Rx 1 0x189 s 4 00 00 00 00 
12:40:26:2400 Rx 1 0x18B s 8 01 40 0B 00 18 00 00 00 
12:40:26:2400 Rx 1 0x18C s 8 19 3D 12 13 40 00 EC FF 
12:40:26:2410 Rx 1 0x18D s 8 44 26 B2 CC C3 FF AD FF 
12:40:26:2410 Rx 1 0x18E s 8 BD F3 D2 3E 0F 00 4F 00 
12:40:26:3060 Rx 1 0x18B s 8 01 40 0B 00 18 00 00 00 
12:40:26:3060 Rx 1 0x18C s 8 19 3D 12 13 40 00 EC FF 
12:40:26:3070 Rx 1 0x18D s 8 44 26 B2 CC C3 FF AD FF 
12:40:26:3070 Rx 1 0x18E s 8 BD F3 D2 3E 0F 00 4F 00 
12:40:26:3720 Rx 1 0x18B s 8 01 40 0B 00 0C 00 00 00 
12:40:26:3720 Rx 1 0x18C s 8 16 3D 1C 13 30 00 F1 FF 
12:40:26:3730 Rx 1 0x18D s 8 49 26 B5 CC C4 FF AF FF 
12:40:26:3730 Rx 1 0x18E s 8 BE F3 D2 3E 0F 00 50 00 
12:40:26:3940 Rx 1 0x181 s 7 00 00 00 00 00 00 00 
12:40:26:3940 Rx 1 0x182 s 3 00 88 FE 
12:40:26:3950 Rx 1 0x184 s 8 80 25 8C BC 80 25 8C BC 
12:40:26:3950 Rx 1 0x185 s 4 E6 4E D4 3F 
12:40:26:3950 Rx 1 0x186 s 8 80 25 8C BC 80 25 8C BC 
12:40:26:3960 Rx 1 0x188 s 8 59 01 7C FA 09 FE 00 00 
12:40:26:3960 Rx 1 0x189 s 4 01 00 00 00 
12:40:26:4380 Rx 1 0x18B s 8 01 40 0E 00 00 00 00 00 
12:40:26:4380 Rx 1 0x18C s 8 19 3D 14 13 2D 00 F2 FF 
12:40:26:4390 Rx 1 0x18D s 8 49 26 B6 CC B8 FF 9F FF 
12:40:26:4390 Rx 1 0x18E s 8 C9 F3 D4 3E 13 00 63 00 
12:40:26:5040 Rx 1 0x18B s 8 01 40 0E 00 00 00 00 00 
12:40:26:5040 Rx 1 0x18C s 8 19 3D 14 13 2D 00 F2 FF 
12:40:26:5050 Rx 1 0x18D s 8 49 26 B6 CC B8 FF 9F FF 
12:40:26:5050 Rx 1 0x18E s 8 C9 F3 D4 3E 13 00 63 00 
12:40:26:5700 Rx 1 0x18B s 8 01 40 09 00 21 00 00 00 
12:40:26:5700 Rx 1 0x18C s 8 18 3D 15 13 2F 00 F2 FF 
12:40:26:5710 Rx 1 0x18D s 8 4E 26 B9 CC C1 FF AB FF 
12:40:26:5710 Rx 1 0x18E s 8 CA F3 D4 3E 12 00 5E 00 
12:40:26:5940 Rx 1 0x181 s 7 00 00 00 00 00 00 00 
12:40:26:5940 Rx 1 0x182 s 3 00 89 FE 
12:40:26:5950 Rx 1 0x184 s 8 E0 BB 99 BC E0 BB 99 BC 
12:40:26:5950 Rx 1 0x185 s 4 62 9A D4 3F 
12:40:26:5950 Rx 1 0x186 s 8 E0 BB 99 BC E0 BB 99 BC 
12:40:26:5960 Rx 1 0x188 s 8 5A 01 7D FA 0A FE 00 00 
12:40:26:5960 Rx 1 0x189 s 4 00 00 01 00 
12:40:26:6360 Rx 1 0x18B s 8 01 40 0B 00 15 00 00 00 
12:40:26:6360 Rx 1 0x18C s 8 16 3D 1A 13 4E 00 E8 FF 
12:40:26:6370 Rx 1 0x18D s 8 4E 26 BA CC B3 FF 99 FF 
12:40:26:6370 Rx 1 0x18E s 8 C0 F3 D2 3E 11 00 57 00 
12:40:26:7020 Rx 1 0x18B s 8 01 40 0B 00 15 00 00 00 
12:40:26:7020 Rx 1 0x18C s 8 16 3D 1A 13 4E 00 E8 FF 
12:40:26:7030 Rx 1 0x18D s 8 4E 26 BA CC B3 FF 99 FF 
12:40:26:7030 Rx 1 0x18E s 8 C0 F3 D2 3E 11 00 57 00 
12:40:26:7680 Rx 1 0x18B s 8 01 40 0C 00 0A 00 00 00 
12:40:26:7680 Rx 1 0x18C s 8 19 3D 13 13 2A 00 F3 FF 
12:40:26:7690 Rx 1 0x18D s 8 4D 26 B9 CC AD FF 90 FF 
12:40:26:7690 Rx 1 0x18E s 8 BF F3 D2 3E 15 00 6B 00 
12:40:26:7940 Rx 1 0x181 s 7 00 00 00 00 00 00 00 
12:40:26:7940 Rx 1 0x182 s 3 00 87 FE 
12:40:26:7950 Rx 1 0x184 s 8 A0 01 A8 BC A0 01 A8 BC 
12:40:26:7950 Rx 1 0x185 s 4 B8 BF D4 3F 
12:40:26:7950 Rx 1 0x186 s 8 A0 01 A8 BC A0 01 A8 BC 
12:40:26:7960 Rx 1 0x188 s 8 57 01 7C FA 0A FE 00 00 
12:40:26:7960 Rx 1 0x189 s 4 00 00 02 00 
12:40:26:8340 Rx 1 0x18B s 8 01 40 0C 00 1B 00 00 00 
12:40:26:8340 Rx 1 0x18C s 8 13 3D 25 13 0D 00 FC FF 
12:40:26:8350 Rx 1 0x18D s 8 34 26 A6 CC A3 FF 83 FF 
12:40:26:8350 Rx 1 0x18E s 8 E6 F3 D9 3E 14 00 69 00 
12:40:26:9000 Rx 1 0x18B s 8 01 40 0C 00 1B 00 00 00 
12:40:26:9000 Rx 1 0x18C s 8 13 3D 25 13 0D 00 FC FF 
12:40:26:9010 Rx 1 0x18D s 8 34 26 A6 CC A3 FF 83 FF 
12:40:26:9010 Rx 1 0x18E s 8 E6 F3 D9 3E 14 00 69 00 
12:40:26:9660 Rx 1 0x18B s 8 01 40 0E 00 0F 00 00 00 
12:40:26:9660 Rx 1 0x18C s 8 17 3D 1A 13 2B 00 F3 FF 
12:40:26:9670 Rx 1 0x18D s 8 34 26 A6 CC B4 FF 9A FF 
12:40:26:9670 Rx 1 0x18E s 8 01 F4 DF 3E 0E 00 4A 00 
12:40:26:9940 Rx 1 0x181 s 7 00 00 00 00 00 00 00 
12:40:26:9940 Rx 1 0x182 s 3 00 85 FE 
12:40:26:9950 Rx 1 0x184 s 8 00 70 BB BB 00 70 BB BB 
12:40:26:9950 Rx 1 0x185 s 4 AB 21 D3 3F 
12:40:26:9950 Rx 1 0x186 s 8 00 70 BB BB 00 70 BB BB 
12:40:26:9960 Rx 1 0x188 s 8 5B 01 7B FA 08 FE 00 00 
12:40:26:9960 Rx 1 0x189 s 4 00 00 01 00 
12:40:27:0320 Rx 1 0x18B s 8 01 40 01 00 12 00 00 00 
12:40:27:0320 Rx 1 0x18C s 8 19 3D 13 13 2F 00 F2 FF 
12:40:27:0330 Rx 1 0x18D s 8 37 26 A8 CC B6 FF 9C FF 
12:40:27:0330 Rx 1 0x18E s 8 ED F3 DB 3E 0F 00 52 00 
12:40:27:0980 Rx 1 0x18B s 8 01 40 01 00 12 00 00 00 
12:40:27:0980 Rx 1 0x18C s 8 19 3D 13 13 2F 00 F2 FF 
12:40:27:0990 Rx 1 0x18D s 8 37 26 A8 CC B6 FF 9C FF 
12:40:27:0990 Rx 1 0x18E s 8 ED F3 DB 3E 0F 00 52 00 
12:40:27:1640 Rx 1 0x18B s 8 01 40 03 00 08 00 00 00 
12:40:27:1640 Rx 1 0x18C s 8 24 3D EE 12 0D 00 FC FF 
12:40:27:1650 Rx 1 0x18D s 8 27 26 9D CC BF FF A8 FF 
12:40:27:1650 Rx 1 0x18E s 8 E3 F3 D9 3E 0E 00 49 00 
12:40:27:1940 Rx 1 0x181 s 7 00 00 00 00 00 00 00 
12:40:27:1940 Rx 1 0x182 s 3 00 86 FE 
12:40:27:1950 Rx 1 0x184 s 8 E0 93 DF BC E0 93 DF BC 
12:40:27:1950 Rx 1 0x185 s 4 14 85 D4 3F 
12:40:27:1950 Rx 1 0x186 s 8 E0 93 DF BC E0 93 DF BC 
12:40:27:1960 Rx 1 0x188 s 8 58 01 7C FA 09 FE 00 00 
12:40:27:1960 Rx 1 0x189 s 4 00 00 01 00 
12:40:27:2300 Rx 1 0x18B s 8 01 40 1E 00 21 00 00 00 
12:40:27:2300 Rx 1 0x18C s 8 1E 3D 03 13 0E 00 FC FF 
12:40:27:2310 Rx 1 0x18D s 8 36 26 A7 CC BB FF A3 FF 
12:40:27:2310 Rx 1 0x18E s 8 DE F3 D8 3E 0F 00 52 00 
12:40:27:2960 Rx 1 0x18B s 8 01 40 1E 00 21 00 00 00 
12:40:27:2960 Rx 1 0x18C s 8 1E 3D 03 13 0E 00 FC FF 
12:40:27:2970 Rx 1 0x18D s 8 36 26 A7 CC BB FF A3 FF 
12:40:27:2970 Rx 1 0x18E s 8 DE F3 D8 3E 0F 00 52 00 
12:40:27:3620 Rx 1 0x18B s 8 01 40 FC FF FE FF 00 00 
12:40:27:3620 Rx 1 0x18C s 8 1B 3D 0D 13 33 00 F1 FF 
12:40:27:3630 Rx 1 0x18D s 8 3D 26 AC CC D3 FF C4 FF 
12:40:27:3630 Rx 1 0x18E s 8 CF F3 D5 3E 09 00 2F 00 
12:40:27:3940 Rx 1 0x181 s 7 00 00 00 00 00 00 00 
12:40:27:3940 Rx 1 0x182 s 3 00 8B FE 
12:40:27:3950 Rx 1 0x184 s 8 C0 CE 9F BC C0 CE 9F BC 
12:40:27:3950 Rx 1 0x185 s 4 7F 48 D4 3F 
12:40:27:3950 Rx 1 0x186 s 8 C0 CE 9F BC C0 CE 9F BC 
12:40:27:3960 Rx 1 0x188 s 8 5B 01 7B FA 0B FE 00 00 
12:40:27:3960 Rx 1 0x189 s 4 00 00 FE FF 
12:40:27:4280 Rx 1 0x18B s 8 01 40 08 00 D9 FF 00 00 
12:40:27:4280 Rx 1 0x18C s 8 0C 3D 3B 13 58 00 E4 FF 
12:40:27:4290 Rx 1 0x18D s 8 6C 26 CF CC DB FF CF FF 
12:40:27:4290 Rx 1 0x18E s 8 70 F3 C3 3E 05 00 19 00 
12:40:27:4940 Rx 1 0x18B s 8 01 40 08 00 D9 FF 00 00 
12:40:27:4940 Rx 1 0x18C s 8 0C 3D 3B 13 58 00 E4 FF 
12:40:27:4950 Rx 1 0x18D s 8 6C 26 CF CC DB FF CF FF 
12:40:27:4950 Rx 1 0x18E s 8 70 F3 C3 3E 05 00 19 00 
12:40:27:5600 Rx 1 0x18B s 8 01 40 09 00 EB FF 00 00 
12:40:27:5600 Rx 1 0x18C s 8 BA 3C 39 14 27 00 F3 FF 
12:40:27:5610 Rx 1 0x18D s 8 9F 27 BC CD B6 FF A1 FF 
12:40:27:5610 Rx 1 0x18E s 8 BF F1 66 3E 19 00 70 00 
12:40:27:5940 Rx 1 0x181 s 7 00 00 00 00 00 00 00 
12:40:27:5940 Rx 1 0x182 s 3 00 CB FE 
12:40:27:5950 Rx 1 0x184 s 8 00 56 34 BB 00 56 34 BB 
12:40:27:5950 Rx 1 0x185 s 4 A5 CD D9 3F 
12:40:27:5950 Rx 1 0x186 s 8 00 56 34 BB 00 56 34 BB 
12:40:27:5960 Rx 1 0x188 s 8 8B 01 87 FA 0F FE 00 00 
12:40:27:5960 Rx 1 0x189 s 4 01 00 00 00 
12:40:27:6260 Rx 1 0x18B s 8 01 40 0F 00 FD FF 00 00 
12:40:27:6260 Rx 1 0x18C s 8 F2 3B 6F 16 1C 00 F6 FF 
12:40:27:6270 Rx 1 0x18D s 8 83 29 48 CF CB FF C1 FF 
12:40:27:6270 Rx 1 0x18E s 8 6D EF D2 3D 19 00 5E 00 
12:40:27:6920 Rx 1 0x18B s 8 01 40 0F 00 FD FF 00 00 
12:40:27:6920 Rx 1 0x18C s 8 F2 3B 6F 16 1C 00 F6 FF 
12:40:27:6930 Rx 1 0x18D s 8 83 29 48 CF CB FF C1 FF 
12:40:27:6930 Rx 1 0x18E s 8 6D EF D2 3D 19 00 5E 00 
12:40:27:7580 Rx 1 0x18B s 8 01 40 0D 00 DE FF 00 00 
12:40:27:7580 Rx 1 0x18C s 8 F5 3A EA 18 25 00 F1 FF 
12:40:27:7590 Rx 1 0x18D s 8 5D 2B ED D0 D4 FF D0 FF 
12:40:27:7590 Rx 1 0x18E s 8 13 ED 24 3D 26 00 7C 00 
12:40:27:7940 Rx 1 0x181 s 7 00 00 00 00 00 00 00 
12:40:27:7940 Rx 1 0x182 s 3 00 0D FF 
12:40:27:7950 Rx 1 0x184 s 8 54 35 71 3E 54 35 71 3E 
12:40:27:7950 Rx 1 0x185 s 4 32 51 D6 3F 
12:40:27:7950 Rx 1 0x186 s 8 54 35 71 3E 54 35 71 3E 
12:40:27:7960 Rx 1 0x188 s 8 E4 01 83 FA FD FD 00 00 
12:40:27:7960 Rx 1 0x189 s 4 01 00 FF FF 
12:40:27:8240 Rx 1 0x18B s 8 01 40 10 00 F8 FF 00 00 
12:40:27:8240 Rx 1 0x18C s 8 20 3A CD 1A 39 00 E6 FF 
12:40:27:8250 Rx 1 0x18D s 8 D3 2C 50 D2 FA FF FA FF 
12:40:27:8250 Rx 1 0x18E s 8 F5 EC 1B 3D 01 00 04 00 
12:40:27:8900 Rx 1 0x18B s 8 01 40 10 00 F8 FF 00 00 
12:40:27:8900 Rx 1 0x18C s 8 20 3A CD 1A 39 00 E6 FF 
12:40:27:8910 Rx 1 0x18D s 8 D3 2C 50 D2 FA FF FA FF 
12:40:27:8910 Rx 1 0x18E s 8 F5 EC 1B 3D 01 00 04 00 
12:40:27:9560 Rx 1 0x18B s 8 01 40 1B 00 00 00 00 00 
12:40:27:9560 Rx 1 0x18C s 8 AF 39 BC 1B 27 00 EE FF 
12:40:27:9570 Rx 1 0x18D s 8 81 2D FE D2 05 00 05 00 
12:40:27:9570 Rx 1 0x18E s 8 70 ED 41 3D FE FF F9 FF 
12:40:27:9940 Rx 1 0x181 s 7 00 00 00 00 00 00 00 
12:40:27:9940 Rx 1 0x182 s 3 00 0B FF 
12:40:27:9950 Rx 1 0x184 s 8 90 FE F9 3E 90 FE F9 3E 
12:40:27:9950 Rx 1 0x185 s 4 4B 5B C6 3F 
12:40:27:9950 Rx 1 0x186 s 8 90 FE F9 3E 90 FE F9 3E 
12:40:27:9960 Rx 1 0x188 s 8 0A 02 81 FA D8 FD 00 00 
12:40:27:9960 Rx 1 0x189 s 4 00 00 05 00 
12:40:28:0220 Rx 1 0x18B s 8 01 40 FB FF 31 00 00 00 
12:40:28:0220 Rx 1 0x18C s 8 68 39 4E 1C E8 FF 0B 00 
12:40:28:0230 Rx 1 0x18D s 8 F4 2D 73 D3 F7 FF F7 FF 
12:40:28:0230 Rx 1 0x18E s 8 6D EC F0 3C 09 00 1C 00 
12:40:28:0880 Rx 1 0x18B s 8 01 40 FB FF 31 00 00 00 
12:40:28:0880 Rx 1 0x18C s 8 68 39 4E 1C E8 FF 0B 00 
12:40:28:0890 Rx 1 0x18D s 8 F4 2D 73 D3 F7 FF F7 FF 
12:40:28:0890 Rx 1 0x18E s 8 6D EC F0 3C 09 00 1C 00 
12:40:28:1540 Rx 1 0x18B s 8 01 40 F5 FF 10 00 00 00 
12:40:28:1540 Rx 1 0x18C s 8 4F 39 80 1C E8 FF 0C 00 
12:40:28:1550 Rx 1 0x18D s 8 2D 2E AE D3 F0 FF F1 FF 
12:40:28:1550 Rx 1 0x18E s 8 0F EC D2 3C 06 00 13 00 
12:40:28:1940 Rx 1 0x181 s 7 00 00 00 00 00 00 00 
12:40:28:1940 Rx 1 0x182 s 3 00 1C FF 
12:40:28:1950 Rx 1 0x184 s 8 71 B1 00 3F 71 B1 00 3F 
12:40:28:1950 Rx 1 0x185 s 4 E2 48 C7 3F 
12:40:28:1950 Rx 1 0x186 s 8 71 B1 00 3F 71 B1 00 3F 
12:40:28:1960 Rx 1 0x188 s 8 12 02 83 FA DF FD 00 00 
12:40:28:1960 Rx 1 0x189 s 4 00 00 01 00 
12:40:28:2200 Rx 1 0x18B s 8 01 40 05 00 0C 00 00 00 
12:40:28:2200 Rx 1 0x18C s 8 43 39 99 1C 04 00 FE FF 
12:40:28:2210 Rx 1 0x18D s 8 3F 2E C0 D3 0A 00 09 00 
12:40:28:2210 Rx 1 0x18E s 8 97 EB AA 3C 01 00 03 00 
12:40:28:2860 Rx 1 0x18B s 8 01 40 05 00 0C 00 00 00 
12:40:28:2860 Rx 1 0x18C s 8 43 39 99 1C 04 00 FE FF 
12:40:28:2870 Rx 1 0x18D s 8 3F 2E C0 D3 0A 00 09 00 
12:40:28:2870 Rx 1 0x18E s 8 97 EB AA 3C 01 00 03 00 
12:40:28:3520 Rx 1 0x18B s 8 01 40 02 00 2A 00 00 00 
12:40:28:3520 Rx 1 0x18C s 8 30 39 BE 1C E5 FF 0D 00 
12:40:28:3530 Rx 1 0x18D s 8 62 2E E5 D3 F7 FF F7 FF 
12:40:28:3530 Rx 1 0x18E s 8 0C EA 1F 3C 18 00 42 00 
12:40:28:3940 Rx 1 0x181 s 7 00 00 00 00 00 00 00 
12:40:28:3940 Rx 1 0x182 s 3 00 55 FF 
12:40:28:3950 Rx 1 0x184 s 8 CE 9B E8 3E CE 9B E8 3E 
12:40:28:3950 Rx 1 0x185 s 4 E5 3F CD 3F 
12:40:28:3950 Rx 1 0x186 s 8 CE 9B E8 3E CE 9B E8 3E 
12:40:28:3960 Rx 1 0x188 s 8 14 02 92 FA 06 FE 00 00 
12:40:28:3960 Rx 1 0x189 s 4 01 00 00 00 
12:40:28:4180 Rx 1 0x18B s 8 01 40 14 00 1A 00 00 00 
12:40:28:4180 Rx 1 0x18C s 8 32 39 BB 1C DF FF 10 00 
12:40:28:4190 Rx 1 0x18D s 8 2C 2F BE D4 F6 FF F7 FF 
12:40:28:4190 Rx 1 0x18E s 8 96 E8 91 3B 1B 00 45 00 
12:40:28:4840 Rx 1 0x18B s 8 01 40 14 00 1A 00 00 00 
12:40:28:4840 Rx 1 0x18C s 8 32 39 BB 1C DF FF 10 00 
12:40:28:4850 Rx 1 0x18D s 8 2C 2F BE D4 F6 FF F7 FF 
12:40:28:4850 Rx 1 0x18E s 8 96 E8 91 3B 1B 00 45 00 
12:40:28:5500 Rx 1 0x18B s 8 01 40 0A 00 FF FF 00 00 
12:40:28:5500 Rx 1 0x18C s 8 2F 39 C0 1C E3 FF 0F 00 
12:40:28:5510 Rx 1 0x18D s 8 11 30 BD D5 F1 FF F3 FF 
12:40:28:5510 Rx 1 0x18E s 8 4A E7 0B 3B 2D 00 6D 00 
12:40:28:5940 Rx 1 0x181 s 7 00 00 00 00 00 00 00 
12:40:28:5940 Rx 1 0x182 s 3 00 8F FF 
12:40:28:5950 Rx 1 0x184 s 8 00 63 C2 3E 00 63 C2 3E 
12:40:28:5950 Rx 1 0x185 s 4 56 92 E9 3F 
12:40:28:5950 Rx 1 0x186 s 8 00 63 C2 3E 00 63 C2 3E 
12:40:28:5960 Rx 1 0x188 s 8 14 02 CC FA 05 FE 00 00 
12:40:28:5960 Rx 1 0x189 s 4 01 00 02 00 
12:40:28:6160 Rx 1 0x18B s 8 01 40 04 00 0D 00 00 00 
12:40:28:6160 Rx 1 0x18C s 8 2F 39 C0 1C E2 FF 0F 00 
12:40:28:6170 Rx 1 0x18D s 8 89 31 78 D7 09 00 07 00 
12:40:28:6170 Rx 1 0x18E s 8 1E E5 16 3A 33 00 6F 00 
12:40:28:6820 Rx 1 0x18B s 8 01 40 04 00 0D 00 00 00 
12:40:28:6820 Rx 1 0x18C s 8 2F 39 C0 1C E2 FF 0F 00 
12:40:28:6830 Rx 1 0x18D s 8 89 31 78 D7 09 00 07 00 
12:40:28:6830 Rx 1 0x18E s 8 1E E5 16 3A 33 00 6F 00 
12:40:28:7480 Rx 1 0x18B s 8 01 40 13 00 0D 00 00 00 
12:40:28:7480 Rx 1 0x18C s 8 2C 39 C7 1C CC FF 1A 00 
12:40:28:7490 Rx 1 0x18D s 8 97 32 CB D8 01 00 00 00 
12:40:28:7490 Rx 1 0x18E s 8 9D E3 5D 39 3C 00 7A 00 
12:40:28:7940 Rx 1 0x181 s 7 00 00 00 00 00 00 00 
12:40:28:7940 Rx 1 0x182 s 3 00 CC FF 
12:40:28:7950 Rx 1 0x184 s 8 58 71 A1 3E 58 71 A1 3E 
12:40:28:7950 Rx 1 0x185 s 4 66 8B 0A 40 
12:40:28:7950 Rx 1 0x186 s 8 58 71 A1 3E 58 71 A1 3E 
12:40:28:7960 Rx 1 0x188 s 8 15 02 09 FB 05 FE 00 00 
12:40:28:7960 Rx 1 0x189 s 4 00 00 01 00 
12:40:28:8140 Rx 1 0x18B s 8 01 40 13 00 0D 00 00 00 
12:40:28:8140 Rx 1 0x18C s 8 2C 39 C7 1C CC FF 1A 00 
12:40:28:8150 Rx 1 0x18D s 8 97 32 CB D8 01 00 00 00 
12:40:28:8150 Rx 1 0x18E s 8 9D E3 5D 39 3C 00 7A 00 
12:40:28:8800 Rx 1 0x18B s 8 01 40 0C 00 11 00 00 00 
12:40:28:8800 Rx 1 0x18C s 8 1E 39 E1 1C BA FF 23 00 
12:40:28:8810 Rx 1 0x18D s 8 8C 33 0E DA E6 FF ED FF 
12:40:28:8810 Rx 1 0x18E s 8 3E E2 AA 38 52 00 9C 00 
12:40:28:9460 Rx 1 0x18B s 8 01 40 0D 00 1E 00 00 00 
12:40:28:9460 Rx 1 0x18C s 8 35 39 B3 1C AA FF 2B 00 
12:40:28:9470 Rx 1 0x18D s 8 B9 34 B5 DB E5 FF EE FF 
12:40:28:9470 Rx 1 0x18E s 8 75 E0 B0 37 69 00 BA 00 
12:40:28:9940 Rx 1 0x181 s 7 00 00 00 00 00 00 00 
12:40:28:9940 Rx 1 0x182 s 3 00 10 00 
12:40:28:9950 Rx 1 0x184 s 8 90 9A 93 3E 90 9A 93 3E 
12:40:28:9950 Rx 1 0x185 s 4 54 22 1F 40 
12:40:28:9950 Rx 1 0x186 s 8 90 9A 93 3E 90 9A 93 3E 
12:40:28:9960 Rx 1 0x188 s 8 14 02 50 FB 04 FE 00 00 
12:40:28:9960 Rx 1 0x189 s 4 01 00 01 00 
12:40:29:0120 Rx 1 0x18B s 8 01 40 0D 00 1E 00 00 00 
12:40:29:0120 Rx 1 0x18C s 8 35 39 B3 1C AA FF 2B 00 
12:40:29:0130 Rx 1 0x18D s 8 B9 34 B5 DB E5 FF EE FF 
12:40:29:0130 Rx 1 0x18E s 8 75 E0 B0 37 69 00 BA 00 
12:40:29:0780 Rx 1 0x18B s 8 01 40 14 00 11 00 00 00 
12:40:29:0780 Rx 1 0x18C s 8 37 39 B0 1C A2 FF 2F 00 
12:40:29:0790 Rx 1 0x18D s 8 C1 35 42 DD F3 FF F8 FF 
12:40:29:0790 Rx 1 0x18E s 8 15 21 37 C9 90 FF 47 FF 
12:40:29:1400 Rx 1 0x183 s 7 00 00 00 00 00 00 01 
12:40:29:1440 Rx 1 0x18B s 8 01 40 14 00 06 00 00 00 
12:40:29:1440 Rx 1 0x18C s 8 2E 39 C2 1C B5 FF 25 00 
12:40:29:1450 Rx 1 0x18D s 8 B8 36 CC DE FE FF FF FF 
12:40:29:1450 Rx 1 0x18E s 8 84 22 1B CA 91 FF 53 FF 
12:40:29:1940 Rx 1 0x181 s 7 00 00 00 00 00 00 00 
12:40:29:1940 Rx 1 0x182 s 3 00 52 00 
12:40:29:1950 Rx 1 0x184 s 8 A8 AC 9F 3E A8 AC 9F 3E 
12:40:29:1950 Rx 1 0x185 s 4 71 C3 32 40 
12:40:29:1950 Rx 1 0x186 s 8 A8 AC 9F 3E A8 AC 9F 3E 
12:40:29:1960 Rx 1 0x188 s 8 15 02 92 FB 02 FE 00 00 
12:40:29:1960 Rx 1 0x189 s 4 01 00 00 00 
12:40:29:2100 Rx 1 0x18B s 8 01 40 14 00 06 00 00 00 
12:40:29:2100 Rx 1 0x18C s 8 2E 39 C2 1C B5 FF 25 00 
12:40:29:2110 Rx 1 0x18D s 8 B8 36 CC DE FE FF FF FF 
12:40:29:2110 Rx 1 0x18E s 8 84 22 1B CA 91 FF 53 FF 
12:40:29:2760 Rx 1 0x18B s 8 01 40 05 00 12 00 00 00 
12:40:29:2760 Rx 1 0x18C s 8 26 39 D2 1C B6 FF 25 00 
12:40:29:2770 Rx 1 0x18D s 8 C7 37 9B E0 17 00 0D 00 
12:40:29:2770 Rx 1 0x18E s 8 47 24 46 CB 94 FF 63 FF 
12:40:29:3420 Rx 1 0x18B s 8 01 40 0A 00 EB FF 00 00 
12:40:29:3420 Rx 1 0x18C s 8 29 39 CD 1C DC FF 12 00 
12:40:29:3430 Rx 1 0x18D s 8 BD 38 60 E2 39 00 1D 00 
12:40:29:3430 Rx 1 0x18E s 8 F1 25 76 CC 84 FF 58 FF 
12:40:29:3940 Rx 1 0x181 s 7 00 00 00 00 00 00 00 
12:40:29:3940 Rx 1 0x182 s 3 00 9F 00 
12:40:29:3950 Rx 1 0x184 s 8 34 54 BF 3E 34 54 BF 3E 
12:40:29:3950 Rx 1 0x185 s 4 03 42 49 40 
12:40:29:3950 Rx 1 0x186 s 8 34 54 BF 3E 34 54 BF 3E 
12:40:29:3960 Rx 1 0x188 s 8 15 02 DF FB 02 FE 00 00 
12:40:29:3960 Rx 1 0x189 s 4 01 00 03 00 
12:40:29:4080 Rx 1 0x18B s 8 01 40 0A 00 EB FF 00 00 
12:40:29:4080 Rx 1 0x18C s 8 29 39 CD 1C DC FF 12 00 
12:40:29:4090 Rx 1 0x18D s 8 BD 38 60 E2 39 00 1D 00 
12:40:29:4090 Rx 1 0x18E s 8 F1 25 76 CC 84 FF 58 FF 
12:40:29:4740 Rx 1 0x18B s 8 01 40 17 00 2F 00 00 00 
12:40:29:4740 Rx 1 0x18C s 8 2E 39 C3 1C EA FF 0B 00 
12:40:29:4750 Rx 1 0x18D s 8 C0 39 68 E4 35 00 19 00 
12:40:29:4750 Rx 1 0x18E s 8 D2 27 E7 CD 60 FF 36 FF 
12:40:29:5400 Rx 1 0x18B s 8 01 40 11 00 05 00 00 00 
12:40:29:5400 Rx 1 0x18C s 8 2E 39 C2 1C E2 FF 0F 00 
12:40:29:5410 Rx 1 0x18D s 8 D2 3A C4 E6 11 00 07 00 
12:40:29:5410 Rx 1 0x18E s 8 D9 29 95 CF 47 FF 2A FF 
12:40:29:5940 Rx 1 0x181 s 7 00 00 00 00 00 00 00 
12:40:29:5940 Rx 1 0x182 s 3 00 FB 00 
12:40:29:5950 Rx 1 0x184 s 8 1C 7F FE 3E 1C 7F FE 3E 
12:40:29:5950 Rx 1 0x185 s 4 38 CB 63 40 
12:40:29:5950 Rx 1 0x186 s 8 1C 7F FE 3E 1C 7F FE 3E 
12:40:29:5960 Rx 1 0x188 s 8 15 02 3B FC 03 FE 00 00 
12:40:29:5960 Rx 1 0x189 s 4 01 00 01 00 
12:40:29:6060 Rx 1 0x18B s 8 01 40 11 00 05 00 00 00 
12:40:29:6060 Rx 1 0x18C s 8 2E 39 C2 1C E2 FF 0F 00 
12:40:29:6070 Rx 1 0x18D s 8 D2 3A C4 E6 11 00 07 00 
12:40:29:6070 Rx 1 0x18E s 8 D9 29 95 CF 47 FF 2A FF 
12:40:29:6720 Rx 1 0x18B s 8 01 40 08 00 ED FF 00 00 
12:40:29:6720 Rx 1 0x18C s 8 2B 39 C9 1C F6 FF 05 00 
12:40:29:6730 Rx 1 0x18D s 8 D0 3B 37 E9 20 00 0C 00 
12:40:29:6730 Rx 1 0x18E s 8 B4 2B 41 D1 34 FF 26 FF 
12:40:29:7380 Rx 1 0x18B s 8 01 40 0C 00 12 00 00 00 
12:40:29:7380 Rx 1 0x18C s 8 2A 39 CB 1C DE FF 11 00 
12:40:29:7390 Rx 1 0x18D s 8 99 3C 65 EB F2 FF FC FF 
12:40:29:7390 Rx 1 0x18E s 8 46 2D C7 D2 0A FF 0A FF 
12:40:29:7940 Rx 1 0x181 s 7 00 00 00 00 00 00 00 
12:40:29:7940 Rx 1 0x182 s 3 00 4D 01 
12:40:29:7950 Rx 1 0x184 s 8 92 2F 31 3F 92 2F 31 3F 
12:40:29:7950 Rx 1 0x185 s 4 B0 A5 7B 40 
12:40:29:7950 Rx 1 0x186 s 8 92 2F 31 3F 92 2F 31 3F 
12:40:29:7960 Rx 1 0x188 s 8 15 02 91 FC FF FD 00 00 
12:40:29:7960 Rx 1 0x189 s 4 01 00 01 00 
12:40:29:8040 Rx 1 0x18B s 8 01 40 0C 00 12 00 00 00 
12:40:29:8040 Rx 1 0x18C s 8 2A 39 CB 1C DE FF 11 00 
12:40:29:8050 Rx 1 0x18D s 8 99 3C 65 EB F2 FF FC FF 
12:40:29:8050 Rx 1 0x18E s 8 46 2D C7 D2 0A FF 0A FF 
12:40:29:8700 Rx 1 0x18B s 8 02 40 01 00 01 00 00 00 
12:40:29:8700 Rx 1 0x18C s 8 28 39 CE 1C D3 FF 17 00 
12:40:29:8710 Rx 1 0x18D s 8 58 3D BC ED C9 FF F0 FF 
12:40:29:8710 Rx 1 0x18E s 8 ED 2E 80 D4 D1 FE E7 FE 
12:40:29:9360 Rx 1 0x18B s 8 01 40 0A 00 12 00 00 00 
12:40:29:9360 Rx 1 0x18C s 8 25 39 D4 1C D0 FF 18 00 
12:40:29:9370 Rx 1 0x18D s 8 03 3E 28 F0 9A FF E6 FF 
12:40:29:9370 Rx 1 0x18E s 8 99 30 64 D6 91 FE C6 FE 
12:40:29:9940 Rx 1 0x181 s 7 00 00 00 00 00 00 00 
12:40:29:9940 Rx 1 0x182 s 3 00 A8 01 
12:40:29:9950 Rx 1 0x184 s 8 9A C7 71 3F 9A C7 71 3F 
12:40:29:9950 Rx 1 0x185 s 4 97 F8 88 40 
12:40:29:9950 Rx 1 0x186 s 8 9A C7 71 3F 9A C7 71 3F 
12:40:29:9960 Rx 1 0x188 s 8 12 02 EC FC FF FD 00 00 
12:40:29:9960 Rx 1 0x189 s 4 02 00 02 00 
12:40:30:0020 Rx 1 0x18B s 8 01 40 0A 00 12 00 00 00 
12:40:30:0020 Rx 1 0x18C s 8 25 39 D4 1C D0 FF 18 00 
12:40:30:0030 Rx 1 0x18D s 8 03 3E 28 F0 9A FF E6 FF 
12:40:30:0030 Rx 1 0x18E s 8 99 30 64 D6 91 FE C6 FE 
12:40:30:0680 Rx 1 0x18B s 8 01 40 11 00 22 00 00 00 
12:40:30:0680 Rx 1 0x18C s 8 2B 39 C8 1C C7 FF 1C 00 
12:40:30:0690 Rx 1 0x18D s 8 95 3E 99 F2 51 FF DB FF 
12:40:30:0690 Rx 1 0x18E s 8 3F 32 6B D8 38 FE 99 FE 
12:40:30:1340 Rx 1 0x18B s 8 01 40 34 00 5F 00 00 00 
12:40:30:1340 Rx 1 0x18C s 8 2D 39 C4 1C B6 FF 25 00 
12:40:30:1350 Rx 1 0x18D s 8 FA 3E 9A F4 2E FF DA FF 
12:40:30:1350 Rx 1 0x18E s 8 5B 33 E1 D9 15 FE 94 FE 
12:40:30:1940 Rx 1 0x181 s 7 00 00 00 00 00 00 00 
12:40:30:1940 Rx 1 0x182 s 3 00 D6 01 
12:40:30:1950 Rx 1 0x184 s 8 1A 27 9B 3F 1A 27 9B 3F 
12:40:30:1950 Rx 1 0x185 s 4 0D 44 92 40 
12:40:30:1950 Rx 1 0x186 s 8 1A 27 9B 3F 1A 27 9B 3F 
12:40:30:1960 Rx 1 0x188 s 8 12 02 1F FD FC FD 00 00 
12:40:30:1960 Rx 1 0x189 s 4 02 00 05 00 
12:40:30:2000 Rx 1 0x18B s 8 01 40 34 00 5F 00 00 00 
12:40:30:2000 Rx 1 0x18C s 8 2D 39 C4 1C B6 FF 25 00 
12:40:30:2010 Rx 1 0x18D s 8 FA 3E 9A F4 2E FF DA FF 
12:40:30:2010 Rx 1 0x18E s 8 5B 33 E1 D9 15 FE 94 FE 
12:40:30:2660 Rx 1 0x18B s 8 01 40 2B 00 34 00 00 00 
12:40:30:2660 Rx 1 0x18C s 8 38 39 AF 1C BE FF 21 00 
12:40:30:2670 Rx 1 0x18D s 8 00 3F B8 F4 7B FF E9 FF 
12:40:30:2670 Rx 1 0x18E s 8 72 33 F9 D9 66 FE D1 FE 
12:40:30:3320 Rx 1 0x18B s 8 01 40 FD FF 26 00 00 00 
12:40:30:3320 Rx 1 0x18C s 8 2C 39 C7 1C CF FF 19 00 
12:40:30:3330 Rx 1 0x18D s 8 42 3F 45 F6 8D FF EF FF 
12:40:30:3330 Rx 1 0x18E s 8 65 34 4A DB 70 FE E8 FE 
12:40:30:3940 Rx 1 0x181 s 7 00 00 00 00 00 00 00 
12:40:30:3940 Rx 1 0x182 s 3 00 10 02 
12:40:30:3950 Rx 1 0x184 s 8 C7 69 A9 3F C7 69 A9 3F 
12:40:30:3950 Rx 1 0x185 s 4 3B 64 95 40 
12:40:30:3950 Rx 1 0x186 s 8 C7 69 A9 3F C7 69 A9 3F 
12:40:30:3960 Rx 1 0x188 s 8 14 02 53 FD 01 FE 00 00 
12:40:30:3960 Rx 1 0x189 s 4 01 00 00 00 
12:40:30:3980 Rx 1 0x18B s 8 01 40 FD FF 26 00 00 00 
12:40:30:3980 Rx 1 0x18C s 8 2C 39 C7 1C CF FF 19 00 
12:40:30:3990 Rx 1 0x18D s 8 42 3F 45 F6 8D FF EF FF 
12:40:30:3990 Rx 1 0x18E s 8 65 34 4A DB 70 FE E8 FE 
12:40:30:4640 Rx 1 0x18B s 8 01 40 FA FF 15 00 00 00 
12:40:30:4640 Rx 1 0x18C s 8 2E 39 C3 1C F2 FF 07 00 
12:40:30:4650 Rx 1 0x18D s 8 86 3F 29 F8 C3 FF F9 FF 
12:40:30:4650 Rx 1 0x18E s 8 9F 35 18 DD 82 FE 08 FF 
12:40:30:5300 Rx 1 0x18B s 8 01 40 0C 00 19 00 00 00 
12:40:30:5300 Rx 1 0x18C s 8 3B 39 A8 1C 0B 00 FB FF 
12:40:30:5310 Rx 1 0x18D s 8 B9 3F 01 FA EE FF FF FF 
12:40:30:5310 Rx 1 0x18E s 8 8C 36 8E DE A6 FE 2C FF 
12:40:30:5940 Rx 1 0x181 s 7 00 00 00 00 00 00 00 
12:40:30:5940 Rx 1 0x182 s 3 00 5B 02 
12:40:30:5950 Rx 1 0x184 s 8 82 83 CA 3F 82 83 CA 3F 
12:40:30:5950 Rx 1 0x185 s 4 E5 25 9C 40 
12:40:30:5950 Rx 1 0x186 s 8 82 83 CA 3F 82 83 CA 3F 
12:40:30:5960 Rx 1 0x188 s 8 16 02 9D FD 01 FE 00 00 
12:40:30:5960 Rx 1 0x189 s 4 00 00 01 00 
12:40:30:5970 Rx 1 0x18B s 8 01 40 0C 00 19 00 00 00 
12:40:30:5970 Rx 1 0x18C s 8 3B 39 A8 1C 0B 00 FB FF 
12:40:30:5980 Rx 1 0x18D s 8 B9 3F 01 FA EE FF FF FF 
12:40:30:5980 Rx 1 0x18E s 8 8C 36 8E DE A6 FE 2C FF 
12:40:30:6620 Rx 1 0x18B s 8 01 40 11 00 24 00 00 00 
12:40:30:6620 Rx 1 0x18C s 8 21 39 DC 1C 0B 00 FB FF 
12:40:30:6630 Rx 1 0x18D s 8 EA 3F 99 FC C4 FF FD FF 
12:40:30:6630 Rx 1 0x18E s 8 D9 37 C9 E0 6C FE 1F FF 
12:40:30:7280 Rx 1 0x18B s 8 01 40 00 00 0E 00 00 00 
12:40:30:7280 Rx 1 0x18C s 8 0F 39 FF 1C 1C 00 F2 FF 
12:40:30:7290 Rx 1 0x18D s 8 F8 3F E3 FD D6 FF FF FF 
12:40:30:7290 Rx 1 0x18E s 8 6D 38 D6 E1 83 FE 35 FF 
12:40:30:7940 Rx 1 0x181 s 7 00 00 00 00 00 00 00 
12:40:30:7940 Rx 1 0x182 s 3 00 86 02 
12:40:30:7950 Rx 1 0x184 s 8 50 A4 F3 3F 50 A4 F3 3F 
12:40:30:7950 Rx 1 0x185 s 4 F1 1F A0 40 
12:40:30:7950 Rx 1 0x186 s 8 50 A4 F3 3F 50 A4 F3 3F 
12:40:30:7960 Rx 1 0x188 s 8 1F 02 C0 FD FF FD 00 00 
12:40:30:7960 Rx 1 0x189 s 4 00 00 FF FF 
12:40:30:7970 Rx 1 0x18B s 8 01 40 00 00 0E 00 00 00 
12:40:30:7970 Rx 1 0x18C s 8 0F 39 FF 1C 1C 00 F2 FF 
12:40:30:7980 Rx 1 0x18D s 8 F8 3F E3 FD D6 FF FF FF 
12:40:30:8600 Rx 1 0x18B s 8 01 40 17 00 FD FF 00 00 
12:40:30:8600 Rx 1 0x18C s 8 D8 38 6A 1D 39 00 E2 FF 
12:40:30:8610 Rx 1 0x18D s 8 FC 3F 5E FE F9 FF 00 00 
12:40:30:8610 Rx 1 0x18E s 8 B1 38 54 E2 9D FE 46 FF 
12:40:30:9260 Rx 1 0x18B s 8 01 40 17 00 14 00 00 00 
12:40:30:9260 Rx 1 0x18C s 8 7B 38 1C 1E 00 00 00 00 
12:40:30:9270 Rx 1 0x18D s 8 00 40 37 FF B0 FF 00 00 
12:40:30:9270 Rx 1 0x18E s 8 12 39 16 E3 56 FE 28 FF 
12:40:30:9920 Rx 1 0x18B s 8 01 40 17 00 14 00 00 00 
12:40:30:9920 Rx 1 0x18C s 8 7B 38 1C 1E 00 00 00 00 
12:40:30:9930 Rx 1 0x18D s 8 00 40 37 FF B0 FF 00 00 
12:40:30:9930 Rx 1 0x18E s 8 12 39 16 E3 56 FE 28 FF 
12:40:30:9940 Rx 1 0x181 s 7 00 00 00 00 00 00 00 
12:40:30:9940 Rx 1 0x182 s 3 00 A4 02 
12:40:30:9950 Rx 1 0x184 s 8 94 4A 06 40 94 4A 06 40 
12:40:30:9950 Rx 1 0x185 s 4 B3 C7 9D 40 
12:40:30:9950 Rx 1 0x186 s 8 94 4A 06 40 94 4A 06 40 
12:40:30:9960 Rx 1 0x188 s 8 38 02 C5 FD 01 FE 00 00 
12:40:30:9960 Rx 1 0x189 s 4 00 00 01 00 
12:40:31:0580 Rx 1 0x18B s 8 01 40 FF FF 2D 00 00 00 
12:40:31:0580 Rx 1 0x18C s 8 49 38 79 1E 1C 00 F1 FF 
12:40:31:0590 Rx 1 0x18D s 8 01 40 22 00 DC FF 00 00 
12:40:31:0590 Rx 1 0x18E s 8 7E 39 EB E3 7F FE 44 FF 
12:40:31:1240 Rx 1 0x18B s 8 01 40 10 00 EB FF 00 00 
12:40:31:1240 Rx 1 0x18C s 8 4A 38 77 1E 4F 00 D5 FF 
12:40:31:1250 Rx 1 0x18D s 8 F8 3F 21 02 25 00 FF FF 
12:40:31:1250 Rx 1 0x18E s 8 5A 3A BD E5 AF FE 69 FF 
12:40:31:1900 Rx 1 0x18B s 8 01 40 10 00 EB FF 00 00 
12:40:31:1900 Rx 1 0x18C s 8 4A 38 77 1E 4F 00 D5 FF 
12:40:31:1910 Rx 1 0x18D s 8 F8 3F 21 02 25 00 FF FF 
12:40:31:1910 Rx 1 0x18E s 8 5A 3A BD E5 AF FE 69 FF 
12:40:31:1940 Rx 1 0x181 s 7 00 00 00 00 00 00 00 
12:40:31:1940 Rx 1 0x182 s 3 00 F4 02 
12:40:31:1950 Rx 1 0x184 s 8 3A 4C 17 40 3A 4C 17 40 
12:40:31:1950 Rx 1 0x185 s 4 76 60 9F 40 
12:40:31:1950 Rx 1 0x186 s 8 3A 4C 17 40 3A 4C 17 40 
12:40:31:1960 Rx 1 0x188 s 8 38 02 12 FE 02 FE 00 00 
12:40:31:1960 Rx 1 0x189 s 4 00 00 00 00 
12:40:31:2560 Rx 1 0x18B s 8 01 40 0B 00 13 00 00 00 
12:40:31:2560 Rx 1 0x18C s 8 49 38 79 1E 53 00 D3 FF 
12:40:31:2570 Rx 1 0x18D s 8 D0 3F F2 04 40 00 FC FF 
12:40:31:2570 Rx 1 0x18E s 8 7C 3B 67 E8 D2 FE 88 FF 
12:40:31:3220 Rx 1 0x18B s 8 01 40 0C 00 05 00 00 00 
12:40:31:3220 Rx 1 0x18C s 8 47 38 7C 1E 4F 00 D5 FF 
12:40:31:3230 Rx 1 0x18D s 8 AD 3F 79 06 54 00 F8 FF 
12:40:31:3230 Rx 1 0x18E s 8 02 3C C4 E9 FE FE A1 FF 
12:40:31:3880 Rx 1 0x18B s 8 01 40 0C 00 05 00 00 00 
12:40:31:3880 Rx 1 0x18C s 8 47 38 7C 1E 4F 00 D5 FF 
12:40:31:3890 Rx 1 0x18D s 8 AD 3F 79 06 54 00 F8 FF 
12:40:31:3890 Rx 1 0x18E s 8 02 3C C4 E9 FE FE A1 FF 
12:40:31:3940 Rx 1 0x181 s 7 00 00 00 00 00 00 00 
12:40:31:3940 Rx 1 0x182 s 3 00 27 03 
12:40:31:3950 Rx 1 0x184 s 8 BE E2 2E 40 BE E2 2E 40 
12:40:31:3950 Rx 1 0x185 s 4 2C 44 A2 40 
12:40:31:3950 Rx 1 0x186 s 8 BE E2 2E 40 BE E2 2E 40 
12:40:31:3960 Rx 1 0x188 s 8 38 02 47 FE 01 FE 00 00 
12:40:31:3960 Rx 1 0x189 s 4 00 00 02 00 
12:40:31:4540 Rx 1 0x18B s 8 01 40 0F 00 01 00 00 00 
12:40:31:4540 Rx 1 0x18C s 8 48 38 79 1E 7A 00 BE FF 
12:40:31:4550 Rx 1 0x18D s 8 95 3F 55 07 9E 00 EE FF 
12:40:31:4550 Rx 1 0x18E s 8 50 3C 96 EA 45 FF BE FF 
12:40:31:5200 Rx 1 0x18B s 8 01 40 05 00 16 00 00 00 
12:40:31:5200 Rx 1 0x18C s 8 44 38 82 1E 6F 00 C4 FF 
12:40:31:5210 Rx 1 0x18D s 8 80 3F FF 07 A8 00 EB FF 
12:40:31:5210 Rx 1 0x18E s 8 96 3C 61 EB 56 FF C6 FF 
12:40:31:5860 Rx 1 0x18B s 8 01 40 05 00 16 00 00 00 
12:40:31:5860 Rx 1 0x18C s 8 44 38 82 1E 6F 00 C4 FF 
12:40:31:5870 Rx 1 0x18D s 8 80 3F FF 07 A8 00 EB FF 
12:40:31:5870 Rx 1 0x18E s 8 96 3C 61 EB 56 FF C6 FF 
12:40:31:5940 Rx 1 0x181 s 7 00 00 00 00 00 00 00 
12:40:31:5940 Rx 1 0x182 s 3 00 42 03 
12:40:31:5950 Rx 1 0x184 s 8 79 C4 37 40 79 C4 37 40 
12:40:31:5950 Rx 1 0x185 s 4 A5 F9 A2 40 
12:40:31:5950 Rx 1 0x186 s 8 79 C4 37 40 79 C4 37 40 
12:40:31:5960 Rx 1 0x188 s 8 3A 02 5B FE 05 FE 00 00 
12:40:31:5960 Rx 1 0x189 s 4 00 00 01 00 
12:40:31:6520 Rx 1 0x18B s 8 01 40 1C 00 FD FF 00 00 
12:40:31:6520 Rx 1 0x18C s 8 3D 38 8E 1E 1F 00 EF FF 
12:40:31:6530 Rx 1 0x18D s 8 73 3F 6C 08 52 00 F6 FF 
12:40:31:6530 Rx 1 0x18E s 8 BE 3C DA EB 09 FF AE FF 
12:40:31:7180 Rx 1 0x18B s 8 01 40 19 00 2B 00 00 00 
12:40:31:7180 Rx 1 0x18C s 8 3C 38 91 1E FA FF 03 00 
12:40:31:7190 Rx 1 0x18D s 8 69 3F B6 08 22 00 FC FF 
12:40:31:7190 Rx 1 0x18E s 8 D5 3C 23 EC DD FE A1 FF 
12:40:31:7840 Rx 1 0x18B s 8 01 40 19 00 2B 00 00 00 
12:40:31:7840 Rx 1 0x18C s 8 3C 38 91 1E FA FF 03 00 
12:40:31:7850 Rx 1 0x18D s 8 69 3F B6 08 22 00 FC FF 
12:40:31:7850 Rx 1 0x18E s 8 D5 3C 23 EC DD FE A1 FF 
12:40:31:7940 Rx 1 0x181 s 7 00 00 00 00 00 00 00 
12:40:31:7940 Rx 1 0x182 s 3 00 50 03 
12:40:31:7950 Rx 1 0x184 s 8 F0 4B 3C 40 F0 4B 3C 40 
12:40:31:7950 Rx 1 0x185 s 4 29 0C A3 40 
12:40:31:7950 Rx 1 0x186 s 8 F0 4B 3C 40 F0 4B 3C 40 
12:40:31:7960 Rx 1 0x188 s 8 38 02 6A FE 06 FE 00 00 
12:40:31:7960 Rx 1 0x189 s 4 01 00 01 00 
12:40:31:8500 Rx 1 0x18B s 8 01 40 0F 00 38 00 00 00 
12:40:31:8500 Rx 1 0x18C s 8 41 38 87 1E 11 00 F7 FF 
12:40:31:8510 Rx 1 0x18D s 8 53 3F 4D 09 3C 00 F8 FF 
12:40:31:8510 Rx 1 0x18E s 8 07 3D BC EC F5 FE AC FF 
12:40:31:9160 Rx 1 0x18B s 8 01 40 10 00 0B 00 00 00 
12:40:31:9160 Rx 1 0x18C s 8 42 38 86 1E 19 00 F3 FF 
12:40:31:9170 Rx 1 0x18D s 8 32 3F 28 0A 30 00 F9 FF 
12:40:31:9170 Rx 1 0x18E s 8 46 3D 8A ED EB FE AD FF 
12:40:31:9820 Rx 1 0x18B s 8 01 40 10 00 0B 00 00 00 
12:40:31:9820 Rx 1 0x18C s 8 42 38 86 1E 19 00 F3 FF 
12:40:31:9830 Rx 1 0x18D s 8 32 3F 28 0A 30 00 F9 FF 
12:40:31:9830 Rx 1 0x18E s 8 46 3D 8A ED EB FE AD FF 
12:40:31:9940 Rx 1 0x181 s 7 00 00 00 00 00 00 00 
12:40:31:9940 Rx 1 0x182 s 3 00 71 03 
12:40:31:9950 Rx 1 0x184 s 8 1A 47 44 40 1A 47 44 40 
12:40:31:9950 Rx 1 0x185 s 4 D2 8A A3 40 
12:40:31:9950 Rx 1 0x186 s 8 1A 47 44 40 1A 47 44 40 
12:40:31:9960 Rx 1 0x188 s 8 39 02 88 FE 07 FE 00 00 
12:40:31:9960 Rx 1 0x189 s 4 01 00 01 00 
12:40:32:0480 Rx 1 0x18B s 8 01 40 22 00 25 00 00 00 
12:40:32:0480 Rx 1 0x18C s 8 40 38 89 1E 2B 00 E9 FF 
12:40:32:0490 Rx 1 0x18D s 8 0B 3F 0F 0B 3E 00 F5 FF 
12:40:32:0490 Rx 1 0x18E s 8 8E 3D 7C EE F4 FE B4 FF 
12:40:32:1140 Rx 1 0x18B s 8 01 40 22 00 25 00 00 00 
12:40:32:1140 Rx 1 0x18C s 8 40 38 89 1E 2B 00 E9 FF 
12:40:32:1150 Rx 1 0x18D s 8 0B 3F 0F 0B 3E 00 F5 FF 
12:40:32:1150 Rx 1 0x18E s 8 8E 3D 7C EE F4 FE B4 FF 
12:40:32:1800 Rx 1 0x18B s 8 01 40 07 00 1F 00 00 00 
12:40:32:1800 Rx 1 0x18C s 8 3A 38 94 1E 2E 00 E7 FF 
12:40:32:1810 Rx 1 0x18D s 8 E3 3E E9 0B 3F 00 F5 FF 
12:40:32:1810 Rx 1 0x18E s 8 CC 3D 5D EF 0B FF BE FF 
12:40:32:1940 Rx 1 0x181 s 7 00 00 00 00 00 00 00 
12:40:32:1940 Rx 1 0x182 s 3 00 91 03 
12:40:32:1950 Rx 1 0x184 s 8 16 B8 4E 40 16 B8 4E 40 
12:40:32:1950 Rx 1 0x185 s 4 B8 8F A3 40 
12:40:32:1950 Rx 1 0x186 s 8 16 B8 4E 40 16 B8 4E 40 
12:40:32:1960 Rx 1 0x188 s 8 37 02 A7 FE 0A FE 00 00 
12:40:32:1960 Rx 1 0x189 s 4 01 00 02 00 
12:40:32:2460 Rx 1 0x18B s 8 01 40 1A 00 1B 00 00 00 
12:40:32:2460 Rx 1 0x18C s 8 45 38 80 1E 1C 00 F1 FF 
12:40:32:2470 Rx 1 0x18D s 8 BB 3E B7 0C 35 00 F6 FF 
12:40:32:2470 Rx 1 0x18E s 8 0A 3E 48 F0 1B FF C6 FF 
12:40:32:3120 Rx 1 0x18B s 8 01 40 1A 00 1B 00 00 00 
12:40:32:3120 Rx 1 0x18C s 8 45 38 80 1E 1C 00 F1 FF 
12:40:32:3130 Rx 1 0x18D s 8 BB 3E B7 0C 35 00 F6 FF 
12:40:32:3130 Rx 1 0x18E s 8 0A 3E 48 F0 1B FF C6 FF 
12:40:32:3780 Rx 1 0x18B s 8 01 40 E9 FF 39 00 00 00 
12:40:32:3780 Rx 1 0x18C s 8 55 38 63 1E 35 00 E4 FF 
12:40:32:3790 Rx 1 0x18D s 8 91 3E 80 0D 26 00 F8 FF 
12:40:32:3790 Rx 1 0x18E s 8 3A 3E 0C F1 09 FF C5 FF 
12:40:32:3940 Rx 1 0x181 s 7 00 00 00 00 00 00 00 
12:40:32:3940 Rx 1 0x182 s 3 00 AB 03 
12:40:32:3950 Rx 1 0x184 s 8 74 0D 57 40 74 0D 57 40 
12:40:32:3950 Rx 1 0x185 s 4 5E 3A A4 40 
12:40:32:3950 Rx 1 0x186 s 8 74 0D 57 40 74 0D 57 40 
12:40:32:3960 Rx 1 0x188 s 8 34 02 C6 FE 0A FE 00 00 
12:40:32:3960 Rx 1 0x189 s 4 00 00 04 00 
12:40:32:4440 Rx 1 0x18B s 8 01 40 02 00 39 00 00 00 
12:40:32:4440 Rx 1 0x18C s 8 70 38 31 1E 25 00 EC FF 
12:40:32:4450 Rx 1 0x18D s 8 7C 3E DD 0D 20 00 F9 FF 
12:40:32:4450 Rx 1 0x18E s 8 53 3E 76 F1 0B FF C7 FF 
12:40:32:5100 Rx 1 0x18B s 8 01 40 02 00 39 00 00 00 
12:40:32:5100 Rx 1 0x18C s 8 70 38 31 1E 25 00 EC FF 
12:40:32:5110 Rx 1 0x18D s 8 7C 3E DD 0D 20 00 F9 FF 
12:40:32:5110 Rx 1 0x18E s 8 53 3E 76 F1 0B FF C7 FF 
12:40:32:5760 Rx 1 0x18B s 8 01 40 2C 00 F7 FF 00 00 
12:40:32:5760 Rx 1 0x18C s 8 85 38 09 1E 09 00 FC FF 
12:40:32:5770 Rx 1 0x18D s 8 5F 3E 61 0E F2 FF 03 00 
12:40:32:5770 Rx 1 0x18E s 8 6E 3E F1 F1 D8 FE BE FF 
12:40:32:5940 Rx 1 0x181 s 7 00 00 00 00 00 00 00 
12:40:32:5940 Rx 1 0x182 s 3 00 C6 03 
12:40:32:5950 Rx 1 0x184 s 8 B0 A8 5A 40 B0 A8 5A 40 
12:40:32:5950 Rx 1 0x185 s 4 1B 59 A5 40 
12:40:32:5950 Rx 1 0x186 s 8 B0 A8 5A 40 B0 A8 5A 40 
12:40:32:5960 Rx 1 0x188 s 8 23 02 F0 FE 0A FE 00 00 
12:40:32:5960 Rx 1 0x189 s 4 02 00 FB FF 
12:40:32:6420 Rx 1 0x18B s 8 01 40 2C 00 C9 FF 00 00 
12:40:32:6420 Rx 1 0x18C s 8 EC 38 45 1D 2F 00 E8 FF 
12:40:32:6430 Rx 1 0x18D s 8 12 3E 9F 0F EA FF 05 00 
12:40:32:6430 Rx 1 0x18E s 8 B2 3E 2A F3 D1 FE C2 FF 
12:40:32:7080 Rx 1 0x18B s 8 01 40 2C 00 C9 FF 00 00 
12:40:32:7080 Rx 1 0x18C s 8 EC 38 45 1D 2F 00 E8 FF 
12:40:32:7090 Rx 1 0x18D s 8 12 3E 9F 0F EA FF 05 00 
12:40:32:7090 Rx 1 0x18E s 8 B2 3E 2A F3 D1 FE C2 FF 
12:40:32:7740 Rx 1 0x18B s 8 01 40 2B 00 DA FF 00 00 
12:40:32:7740 Rx 1 0x18C s 8 25 39 D3 1C 81 00 BF FF 
12:40:32:7750 Rx 1 0x18D s 8 20 3E 66 0F 49 00 EE FF 
12:40:32:7750 Rx 1 0x18E s 8 A7 3E F2 F2 26 FF D3 FF 
12:40:32:7940 Rx 1 0x181 s 7 00 00 00 00 00 00 00 
12:40:32:7940 Rx 1 0x182 s 3 00 C2 03 
12:40:32:7950 Rx 1 0x184 s 8 E6 67 5A 40 E6 67 5A 40 
12:40:32:7950 Rx 1 0x185 s 4 98 55 A9 40 
12:40:32:7950 Rx 1 0x186 s 8 E6 67 5A 40 E6 67 5A 40 
12:40:32:7960 Rx 1 0x188 s 8 10 02 01 FF 0A FE 00 00 
12:40:32:7960 Rx 1 0x189 s 4 00 00 FC FF 
12:40:32:8400 Rx 1 0x18B s 8 01 40 0B 00 C1 FF 00 00 
12:40:32:8400 Rx 1 0x18C s 8 64 39 55 1C A0 00 B1 FF 
12:40:32:8410 Rx 1 0x18D s 8 3C 3E F1 0E 68 00 E7 FF 
12:40:32:8410 Rx 1 0x18E s 8 8F 3E 7B F2 42 FF D7 FF 
12:40:32:9060 Rx 1 0x18B s 8 01 40 0B 00 C1 FF 00 00 
12:40:32:9060 Rx 1 0x18C s 8 64 39 55 1C A0 00 B1 FF 
12:40:32:9070 Rx 1 0x18D s 8 3C 3E F1 0E 68 00 E7 FF 
12:40:32:9070 Rx 1 0x18E s 8 8F 3E 7B F2 42 FF D7 FF 
12:40:32:9720 Rx 1 0x18B s 8 01 40 11 00 04 00 00 00 
12:40:32:9720 Rx 1 0x18C s 8 CB 39 7F 1B AB 00 AF FF 
12:40:32:9730 Rx 1 0x18D s 8 6B 3E 2A 0E 78 00 E5 FF 
12:40:32:9730 Rx 1 0x18E s 8 60 3E AA F1 4C FF D7 FF 
12:40:32:9940 Rx 1 0x181 s 7 00 00 00 00 00 00 00 
12:40:32:9940 Rx 1 0x182 s 3 00 A2 03 
12:40:32:9950 Rx 1 0x184 s 8 6A 1E 4C 40 6A 1E 4C 40 
12:40:32:9950 Rx 1 0x185 s 4 6C 23 AE 40 
12:40:32:9950 Rx 1 0x186 s 8 6A 1E 4C 40 6A 1E 4C 40 
12:40:32:9960 Rx 1 0x188 s 8 EC 01 06 FF 08 FE 00 00 
12:40:32:9960 Rx 1 0x189 s 4 01 00 FE FF 
12:40:33:0380 Rx 1 0x18B s 8 01 40 01 00 BE FF 00 00 
12:40:33:0380 Rx 1 0x18C s 8 46 3A 73 1A 0B 01 87 FF 
12:40:33:0390 Rx 1 0x18D s 8 9F 3E 37 0D C2 00 D7 FF 
12:40:33:0390 Rx 1 0x18E s 8 26 3E B2 F0 9F FF E9 FF 
12:40:33:1040 Rx 1 0x18B s 8 01 40 01 00 BE FF 00 00 
12:40:33:1040 Rx 1 0x18C s 8 46 3A 73 1A 0B 01 87 FF 
12:40:33:1050 Rx 1 0x18D s 8 9F 3E 37 0D C2 00 D7 FF 
12:40:33:1050 Rx 1 0x18E s 8 26 3E B2 F0 9F FF E9 FF 
12:40:33:1700 Rx 1 0x18B s 8 01 40 07 00 E3 FF 00 00 
12:40:33:1700 Rx 1 0x18C s 8 A3 3A 9C 19 6E 01 60 FF 
12:40:33:1710 Rx 1 0x18D s 8 C4 3E 79 0C 23 01 C7 FF 
12:40:33:1710 Rx 1 0x18E s 8 F8 3D FA EF F0 FF FC FF 
12:40:33:1940 Rx 1 0x181 s 7 00 00 00 00 00 00 00 
12:40:33:1940 Rx 1 0x182 s 3 00 8B 03 
12:40:33:1950 Rx 1 0x184 s 8 4B D6 37 40 4B D6 37 40 
12:40:33:1950 Rx 1 0x185 s 4 B6 5B B4 40 
12:40:33:1950 Rx 1 0x186 s 8 4B D6 37 40 4B D6 37 40 
12:40:33:1960 Rx 1 0x188 s 8 CC 01 0D FF 0A FE 00 00 
12:40:33:1960 Rx 1 0x189 s 4 01 00 FB FF 
12:40:33:2360 Rx 1 0x18B s 8 01 40 10 00 B3 FF 00 00 
12:40:33:2360 Rx 1 0x18C s 8 F1 3A E1 18 B0 01 4A FF 
12:40:33:2370 Rx 1 0x18D s 8 E0 3E E3 0B 5E 01 BE FF 
12:40:33:2370 Rx 1 0x18E s 8 D8 3D 80 EF 25 00 09 00 
12:40:33:3020 Rx 1 0x18B s 8 01 40 10 00 B3 FF 00 00 
12:40:33:3020 Rx 1 0x18C s 8 F1 3A E1 18 B0 01 4A FF 
12:40:33:3030 Rx 1 0x18D s 8 E0 3E E3 0B 5E 01 BE FF 
12:40:33:3030 Rx 1 0x18E s 8 D8 3D 80 EF 25 00 09 00 
12:40:33:3680 Rx 1 0x18B s 8 01 40 17 00 B1 FF 00 00 
12:40:33:3680 Rx 1 0x18C s 8 21 3B 6D 18 C8 01 44 FF 
12:40:33:3690 Rx 1 0x18D s 8 E9 3E B1 0B 7C 01 BA FF 
12:40:33:3690 Rx 1 0x18E s 8 CA 3D 4F EF 3E 00 10 00 
12:40:33:3940 Rx 1 0x181 s 7 00 00 00 00 00 00 00 
12:40:33:3940 Rx 1 0x182 s 3 00 81 03 
12:40:33:3950 Rx 1 0x184 s 8 72 BD 2C 40 72 BD 2C 40 
12:40:33:3950 Rx 1 0x185 s 4 AF FD B7 40 
12:40:33:3950 Rx 1 0x186 s 8 72 BD 2C 40 72 BD 2C 40 
12:40:33:3960 Rx 1 0x188 s 8 B6 01 18 FF 0B FE 00 00 
12:40:33:3960 Rx 1 0x189 s 4 01 00 FF FF 
12:40:33:4340 Rx 1 0x18B s 8 01 40 14 00 E5 FF 00 00 
12:40:33:4340 Rx 1 0x18C s 8 65 3B C6 17 CA 01 49 FF 
12:40:33:4350 Rx 1 0x18D s 8 F9 3E 55 0B 92 01 B8 FF 
12:40:33:4350 Rx 1 0x18E s 8 B3 3D F9 EE 55 00 17 00 
12:40:33:5000 Rx 1 0x18B s 8 01 40 14 00 E5 FF 00 00 
12:40:33:5000 Rx 1 0x18C s 8 65 3B C6 17 CA 01 49 FF 
12:40:33:5010 Rx 1 0x18D s 8 F9 3E 55 0B 92 01 B8 FF 
12:40:33:5010 Rx 1 0x18E s 8 B3 3D F9 EE 55 00 17 00 
12:40:33:5660 Rx 1 0x18B s 8 01 40 0D 00 A1 FF 00 00 
12:40:33:5660 Rx 1 0x18C s 8 AA 3B 11 17 09 02 37 FF 
12:40:33:5670 Rx 1 0x18D s 8 14 3F B1 0A D5 01 B1 FF 
12:40:33:5670 Rx 1 0x18E s 8 82 3D 4E EE 92 00 2A 00 
12:40:33:5940 Rx 1 0x181 s 7 00 00 00 00 00 00 00 
12:40:33:5940 Rx 1 0x182 s 3 00 69 03 
12:40:33:5950 Rx 1 0x184 s 8 2B C1 1E 40 2B C1 1E 40 
12:40:33:5950 Rx 1 0x185 s 4 64 CB BB 40 
12:40:33:5950 Rx 1 0x186 s 8 2B C1 1E 40 2B C1 1E 40 
12:40:33:5960 Rx 1 0x188 s 8 99 01 1E FF 0A FE 00 00 
12:40:33:5960 Rx 1 0x189 s 4 01 00 FE FF 
12:40:33:6320 Rx 1 0x18B s 8 01 40 0C 00 C1 FF 00 00 
12:40:33:6320 Rx 1 0x18C s 8 07 3C 17 16 23 02 37 FF 
12:40:33:6330 Rx 1 0x18D s 8 2C 3F 1B 0A FB 01 AF FF 
12:40:33:6330 Rx 1 0x18E s 8 56 3D B8 ED AD 00 33 00 
12:40:33:6980 Rx 1 0x18B s 8 01 40 0C 00 C1 FF 00 00 
12:40:33:6980 Rx 1 0x18C s 8 07 3C 17 16 23 02 37 FF 
12:40:33:6990 Rx 1 0x18D s 8 2C 3F 1B 0A FB 01 AF FF 
12:40:33:6990 Rx 1 0x18E s 8 56 3D B8 ED AD 00 33 00 
12:40:33:7640 Rx 1 0x18B s 8 01 40 1E 00 D3 FF 00 00 
12:40:33:7640 Rx 1 0x18C s 8 7F 3C C9 14 1B 02 47 FF 
12:40:33:7650 Rx 1 0x18D s 8 45 3F 77 09 FB 01 B5 FF 
12:40:33:7650 Rx 1 0x18E s 8 29 3D 25 ED AB 00 34 00 
12:40:33:7940 Rx 1 0x181 s 7 00 00 00 00 00 00 00 
12:40:33:7940 Rx 1 0x182 s 3 00 4D 03 
12:40:33:7950 Rx 1 0x184 s 8 9F 90 09 40 9F 90 09 40 
12:40:33:7950 Rx 1 0x185 s 4 04 A4 C1 40 
12:40:33:7950 Rx 1 0x186 s 8 9F 90 09 40 9F 90 09 40 
12:40:33:7960 Rx 1 0x188 s 8 6B 01 30 FF 0A FE 00 00 
12:40:33:7960 Rx 1 0x189 s 4 01 00 FD FF 
12:40:33:8300 Rx 1 0x18B s 8 01 40 23 00 A3 FF 00 00 
12:40:33:8300 Rx 1 0x18C s 8 DD 3C B1 13 0C 02 57 FF 
12:40:33:8310 Rx 1 0x18D s 8 6F 3F 52 08 EA 01 C0 FF 
12:40:33:8310 Rx 1 0x18E s 8 CE 3C 07 EC 98 00 32 00 
12:40:33:8960 Rx 1 0x18B s 8 01 40 23 00 A3 FF 00 00 
12:40:33:8960 Rx 1 0x18C s 8 DD 3C B1 13 0C 02 57 FF 
12:40:33:8970 Rx 1 0x18D s 8 6F 3F 52 08 EA 01 C0 FF 
12:40:33:8970 Rx 1 0x18E s 8 CE 3C 07 EC 98 00 32 00 
12:40:33:9620 Rx 1 0x18B s 8 01 40 0B 00 C3 FF 00 00 
12:40:33:9620 Rx 1 0x18C s 8 1E 3D E8 12 F0 01 67 FF 
12:40:33:9630 Rx 1 0x18D s 8 89 3F 83 07 D3 01 C9 FF 
12:40:33:9630 Rx 1 0x18E s 8 89 3C 37 EB 7D 00 2B 00 
12:40:33:9940 Rx 1 0x181 s 7 00 00 00 00 00 00 00 
12:40:33:9940 Rx 1 0x182 s 3 00 32 03 
12:40:33:9950 Rx 1 0x184 s 8 20 6C E4 3F 20 6C E4 3F 
12:40:33:9950 Rx 1 0x185 s 4 B6 81 C5 40 
12:40:33:9950 Rx 1 0x186 s 8 20 6C E4 3F 20 6C E4 3F 
12:40:33:9960 Rx 1 0x188 s 8 4F 01 30 FF 0A FE 00 00 
12:40:33:9960 Rx 1 0x189 s 4 01 00 FD FF 
12:40:34:0280 Rx 1 0x18B s 8 01 40 14 00 D8 FF 00 00 
12:40:34:0280 Rx 1 0x18C s 8 49 3D 63 12 98 01 86 FF 
12:40:34:0290 Rx 1 0x18D s 8 9A 3F 06 07 86 01 D5 FF 
12:40:34:0290 Rx 1 0x18E s 8 64 3C CB EA 34 00 12 00 
12:40:34:0940 Rx 1 0x18B s 8 01 40 14 00 D8 FF 00 00 
12:40:34:0940 Rx 1 0x18C s 8 49 3D 63 12 98 01 86 FF 
12:40:34:0950 Rx 1 0x18D s 8 9A 3F 06 07 86 01 D5 FF 
12:40:34:0950 Rx 1 0x18E s 8 64 3C CB EA 34 00 12 00 
12:40:34:1600 Rx 1 0x18B s 8 01 40 0C 00 CF FF 00 00 
12:40:34:1600 Rx 1 0x18C s 8 85 3D A0 11 39 01 A7 FF 
12:40:34:1610 Rx 1 0x18D s 8 B1 3F 36 06 24 01 E4 FF 
12:40:34:1610 Rx 1 0x18E s 8 20 3C 0D EA E6 FF F7 FF 
12:40:34:1940 Rx 1 0x181 s 7 00 00 00 00 00 00 00 
12:40:34:1940 Rx 1 0x182 s 3 00 12 03 
12:40:34:1950 Rx 1 0x184 s 8 C8 4E C5 3F C8 4E C5 3F 
12:40:34:1950 Rx 1 0x185 s 4 05 D2 C7 40 
12:40:34:1950 Rx 1 0x186 s 8 C8 4E C5 3F C8 4E C5 3F 
12:40:34:1960 Rx 1 0x188 s 8 36 01 35 FF FD FD 00 00 
12:40:34:1960 Rx 1 0x189 s 4 02 00 00 00 
12:40:34:2260 Rx 1 0x18B s 8 01 40 24 00 F2 FF 00 00 
12:40:34:2260 Rx 1 0x18C s 8 A2 3D 3D 11 DB 00 C3 FF 
12:40:34:2270 Rx 1 0x18D s 8 B7 3F 14 06 A2 00 F1 FF 
12:40:34:2270 Rx 1 0x18E s 8 D1 3B 3E E9 3B FF B5 FF 
12:40:34:2920 Rx 1 0x18B s 8 01 40 24 00 F2 FF 00 00 
12:40:34:2920 Rx 1 0x18C s 8 A2 3D 3D 11 DB 00 C3 FF 
12:40:34:2930 Rx 1 0x18D s 8 B7 3F 14 06 A2 00 F1 FF 
12:40:34:2930 Rx 1 0x18E s 8 D1 3B 3E E9 3B FF B5 FF 
12:40:34:3580 Rx 1 0x18B s 8 01 40 06 00 D9 FF 00 00 
12:40:34:3580 Rx 1 0x18C s 8 AD 3D 19 11 67 00 E4 FF 
12:40:34:3590 Rx 1 0x18D s 8 BB 3F EA 05 34 00 FC FF 
12:40:34:3590 Rx 1 0x18E s 8 BD 3B 0E E9 C8 FE 88 FF 
12:40:34:3940 Rx 1 0x181 s 7 00 00 00 00 00 00 00 
12:40:34:3940 Rx 1 0x182 s 3 00 03 03 
12:40:34:3950 Rx 1 0x184 s 8 B6 F1 B7 3F B6 F1 B7 3F 
12:40:34:3950 Rx 1 0x185 s 4 DD 1B C8 40 
12:40:34:3950 Rx 1 0x186 s 8 B6 F1 B7 3F B6 F1 B7 3F 
12:40:34:3960 Rx 1 0x188 s 8 2C 01 30 FF FE FD 00 00 
12:40:34:3960 Rx 1 0x189 s 4 02 00 00 00 
12:40:34:4240 Rx 1 0x18B s 8 01 40 24 00 1C 00 00 00 
12:40:34:4240 Rx 1 0x18C s 8 D0 3D 9D 10 4A 00 EC FF 
12:40:34:4250 Rx 1 0x18D s 8 D4 3F BF 04 24 00 FE FF 
12:40:34:4250 Rx 1 0x18E s 8 52 3B 00 E8 C2 FE 80 FF 
12:40:34:4900 Rx 1 0x18B s 8 01 40 24 00 1C 00 00 00 
12:40:34:4900 Rx 1 0x18C s 8 D0 3D 9D 10 4A 00 EC FF 
12:40:34:4910 Rx 1 0x18D s 8 D4 3F BF 04 24 00 FE FF 
12:40:34:4910 Rx 1 0x18E s 8 52 3B 00 E8 C2 FE 80 FF 
12:40:34:5560 Rx 1 0x18B s 8 01 40 0A 00 E0 FF 00 00 
12:40:34:5560 Rx 1 0x18C s 8 D9 3D 79 10 5D 00 E8 FF 
12:40:34:5570 Rx 1 0x18D s 8 E2 3F EE 03 3B 00 FD FF 
12:40:34:5570 Rx 1 0x18E s 8 FB 3A 2C E7 CA FE 7E FF 
12:40:34:5940 Rx 1 0x181 s 7 00 00 00 00 00 00 00 
12:40:34:5940 Rx 1 0x182 s 3 00 E3 02 
12:40:34:5950 Rx 1 0x184 s 8 E5 8B 99 3F E5 8B 99 3F 
12:40:34:5950 Rx 1 0x185 s 4 BE 13 C8 40 
12:40:34:5950 Rx 1 0x186 s 8 E5 8B 99 3F E5 8B 99 3F 
12:40:34:5960 Rx 1 0x188 s 8 20 01 1F FF FD FD 00 00 
12:40:34:5960 Rx 1 0x189 s 4 00 00 FD FF 
12:40:34:6220 Rx 1 0x18B s 8 01 40 0C 00 E3 FF 00 00 
12:40:34:6220 Rx 1 0x18C s 8 0C 3E B6 0F 43 00 EF FF 
12:40:34:6230 Rx 1 0x18D s 8 ED 3F 31 03 1E 00 FF FF 
12:40:34:6230 Rx 1 0x18E s 8 BB 3A 97 E6 B9 FE 73 FF 
12:40:34:6880 Rx 1 0x18B s 8 01 40 0C 00 E3 FF 00 00 
12:40:34:6880 Rx 1 0x18C s 8 0C 3E B6 0F 43 00 EF FF 
12:40:34:6890 Rx 1 0x18D s 8 ED 3F 31 03 1E 00 FF FF 
12:40:34:6890 Rx 1 0x18E s 8 BB 3A 97 E6 B9 FE 73 FF 
12:40:34:7540 Rx 1 0x18B s 8 01 40 16 00 CD FF 00 00 
12:40:34:7540 Rx 1 0x18C s 8 3A 3E FE 0E 26 00 F7 FF 
12:40:34:7550 Rx 1 0x18D s 8 F5 3F 73 02 11 00 00 00 
12:40:34:7550 Rx 1 0x18E s 8 6C 3A E6 E5 B5 FE 6C FF 
12:40:34:7940 Rx 1 0x181 s 7 00 00 00 00 00 00 00 
12:40:34:7940 Rx 1 0x182 s 3 00 CD 02 
12:40:34:7950 Rx 1 0x184 s 8 62 E5 6A 3F 62 E5 6A 3F 
12:40:34:7950 Rx 1 0x185 s 4 50 D1 C9 40 
12:40:34:7950 Rx 1 0x186 s 8 62 E5 6A 3F 62 E5 6A 3F 
12:40:34:7960 Rx 1 0x188 s 8 07 01 1F FF FF FD 00 00 
12:40:34:7960 Rx 1 0x189 s 4 00 00 00 00 
12:40:34:8200 Rx 1 0x18B s 8 01 40 20 00 F5 FF 00 00 
12:40:34:8200 Rx 1 0x18C s 8 5B 3E 70 0E 42 00 F1 FF 
12:40:34:8210 Rx 1 0x18D s 8 F9 3F 0C 02 2F 00 FF FF 
12:40:34:8210 Rx 1 0x18E s 8 4C 3A 9B E5 D5 FE 79 FF 
12:40:34:8860 Rx 1 0x18B s 8 01 40 20 00 F5 FF 00 00 
12:40:34:8860 Rx 1 0x18C s 8 5B 3E 70 0E 42 00 F1 FF 
12:40:34:8870 Rx 1 0x18D s 8 F9 3F 0C 02 2F 00 FF FF 
12:40:34:8870 Rx 1 0x18E s 8 4C 3A 9B E5 D5 FE 79 FF 
12:40:34:9520 Rx 1 0x18B s 8 01 40 16 00 9A FF 00 00 
12:40:34:9520 Rx 1 0x18C s 8 79 3E EB 0D 7C 00 E5 FF 
12:40:34:9530 Rx 1 0x18D s 8 FA 3F EA 01 5A 00 FE FF 
12:40:34:9530 Rx 1 0x18E s 8 40 3A 80 E5 F5 FE 87 FF 
12:40:34:9940 Rx 1 0x181 s 7 00 00 00 00 00 00 00 
12:40:34:9940 Rx 1 0x182 s 3 00 C4 02 
12:40:34:9950 Rx 1 0x184 s 8 F8 E7 41 3F F8 E7 41 3F 
12:40:34:9950 Rx 1 0x185 s 4 2F 53 CB 40 
12:40:34:9950 Rx 1 0x186 s 8 F8 E7 41 3F F8 E7 41 3F 
12:40:34:9960 Rx 1 0x188 s 8 F1 00 2B FF 00 FE 00 00 
12:40:34:9960 Rx 1 0x189 s 4 00 00 FE FF 
12:40:35:0180 Rx 1 0x18B s 8 01 40 21 00 D2 FF 00 00 
12:40:35:0180 Rx 1 0x18C s 8 9F 3E 39 0D AC 00 DC FF 
12:40:35:0190 Rx 1 0x18D s 8 FD 3F 5D 01 94 00 FD FF 
12:40:35:0190 Rx 1 0x18E s 8 09 3A 07 E5 31 FF A0 FF 
12:40:35:0840 Rx 1 0x18B s 8 01 40 21 00 D2 FF 00 00 
12:40:35:0840 Rx 1 0x18C s 8 9F 3E 39 0D AC 00 DC FF 
12:40:35:0850 Rx 1 0x18D s 8 FD 3F 5D 01 94 00 FD FF 
12:40:35:0850 Rx 1 0x18E s 8 09 3A 07 E5 31 FF A0 FF 
12:40:35:1500 Rx 1 0x18B s 8 01 40 11 00 B8 FF 00 00 
12:40:35:1500 Rx 1 0x18C s 8 C1 3E 94 0C B1 00 DD FF 
12:40:35:1510 Rx 1 0x18D s 8 00 40 CF 00 91 00 FF FF 
12:40:35:1510 Rx 1 0x18E s 8 DB 39 A3 E4 38 FF A2 FF 
12:40:35:1940 Rx 1 0x181 s 7 00 00 00 00 00 00 00 
12:40:35:1940 Rx 1 0x182 s 3 00 B0 02 
12:40:35:1950 Rx 1 0x184 s 8 18 DA 04 3F 18 DA 04 3F 
12:40:35:1950 Rx 1 0x185 s 4 CC 97 CC 40 
12:40:35:1950 Rx 1 0x186 s 8 18 DA 04 3F 18 DA 04 3F 
12:40:35:1960 Rx 1 0x188 s 8 D6 00 2F FF 01 FE 00 00 
12:40:35:1960 Rx 1 0x189 s 4 02 00 FC FF 
12:40:35:2160 Rx 1 0x18B s 8 01 40 FB FF D2 FF 00 00 
12:40:35:2160 Rx 1 0x18C s 8 E5 3E D7 0B C9 00 DA FF 
12:40:35:2170 Rx 1 0x18D s 8 00 40 52 00 AD 00 00 00 
12:40:35:2170 Rx 1 0x18E s 8 9E 39 22 E4 4E FF AA FF 
12:40:35:2820 Rx 1 0x18B s 8 01 40 FB FF D2 FF 00 00 
12:40:35:2820 Rx 1 0x18C s 8 E5 3E D7 0B C9 00 DA FF 
12:40:35:2830 Rx 1 0x18D s 8 00 40 52 00 AD 00 00 00 
12:40:35:2830 Rx 1 0x18E s 8 9E 39 22 E4 4E FF AA FF 
12:40:35:3480 Rx 1 0x18B s 8 01 40 17 00 B9 FF 00 00 
12:40:35:3480 Rx 1 0x18C s 8 03 3F 34 0B E7 00 D7 FF 
12:40:35:3490 Rx 1 0x18D s 8 00 40 FA FF CC 00 00 00 
12:40:35:3490 Rx 1 0x18E s 8 85 39 EE E3 74 FF BC FF 
12:40:35:3940 Rx 1 0x181 s 7 00 00 00 00 00 00 00 
12:40:35:3940 Rx 1 0x182 s 3 00 AB 02 
12:40:35:3950 Rx 1 0x184 s 8 B4 13 97 3E B4 13 97 3E 
12:40:35:3950 Rx 1 0x185 s 4 C0 C7 CD 40 
12:40:35:3950 Rx 1 0x186 s 8 B4 13 97 3E B4 13 97 3E 
12:40:35:3960 Rx 1 0x188 s 8 C9 00 38 FF 03 FE 00 00 
12:40:35:3960 Rx 1 0x189 s 4 00 00 FC FF 
12:40:35:4140 Rx 1 0x18B s 8 01 40 17 00 B9 FF 00 00 
12:40:35:4140 Rx 1 0x18C s 8 03 3F 34 0B E7 00 D7 FF 
12:40:35:4150 Rx 1 0x18D s 8 00 40 FA FF CC 00 00 00 
12:40:35:4150 Rx 1 0x18E s 8 85 39 EE E3 74 FF BC FF 
12:40:35:4800 Rx 1 0x18B s 8 01 40 0E 00 B5 FF 00 00 
12:40:35:4800 Rx 1 0x18C s 8 02 3F 36 0B EF 00 D6 FF 
12:40:35:4810 Rx 1 0x18D s 8 00 40 18 00 D4 00 00 00 
12:40:35:4810 Rx 1 0x18E s 8 8F 39 02 E4 84 FF C4 FF 
12:40:35:5460 Rx 1 0x18B s 8 01 40 07 00 C8 FF 00 00 
12:40:35:5460 Rx 1 0x18C s 8 01 3F 3C 0B FC 00 D4 FF 
12:40:35:5470 Rx 1 0x18D s 8 00 40 44 00 D7 00 00 00 
12:40:35:5470 Rx 1 0x18E s 8 A4 39 2F E4 81 FF C3 FF 
12:40:35:5940 Rx 1 0x181 s 7 00 00 00 00 00 00 00 
12:40:35:5940 Rx 1 0x182 s 3 00 B2 02 
12:40:35:5950 Rx 1 0x184 s 8 FC 89 A4 3E FC 89 A4 3E 
12:40:35:5950 Rx 1 0x185 s 4 30 06 CE 40 
12:40:35:5950 Rx 1 0x186 s 8 FC 89 A4 3E FC 89 A4 3E 
12:40:35:5960 Rx 1 0x188 s 8 CA 00 3D FF 03 FE 00 00 
12:40:35:5960 Rx 1 0x189 s 4 00 00 FA FF 
12:40:35:6120 Rx 1 0x18B s 8 01 40 07 00 C8 FF 00 00 
12:40:35:6120 Rx 1 0x18C s 8 01 3F 3C 0B FC 00 D4 FF 
12:40:35:6130 Rx 1 0x18D s 8 00 40 44 00 D7 00 00 00 
12:40:35:6130 Rx 1 0x18E s 8 A4 39 2F E4 81 FF C3 FF 
12:40:35:6780 Rx 1 0x18B s 8 01 40 14 00 BD FF 00 00 
12:40:35:6780 Rx 1 0x18C s 8 FD 3E 4F 0B 2A 01 CB FF 
12:40:35:6790 Rx 1 0x18D s 8 FF 3F 6C 00 EB 00 FF FF 
12:40:35:6790 Rx 1 0x18E s 8 B4 39 50 E4 91 FF CB FF 
12:40:35:7440 Rx 1 0x18B s 8 01 40 1B 00 C7 FF 00 00 
12:40:35:7440 Rx 1 0x18C s 8 F8 3E 69 0B 29 01 CB FF 
12:40:35:7450 Rx 1 0x18D s 8 FF 3F 92 00 E5 00 FE FF 
12:40:35:7450 Rx 1 0x18E s 8 C6 39 74 E4 8F FF CA FF 
12:40:35:7940 Rx 1 0x181 s 7 00 00 00 00 00 00 00 
12:40:35:7940 Rx 1 0x182 s 3 00 BA 02 
12:40:35:7950 Rx 1 0x184 s 8 64 B7 BB 3E 64 B7 BB 3E 
12:40:35:7950 Rx 1 0x185 s 4 30 15 CE 40 
12:40:35:7950 Rx 1 0x186 s 8 64 B7 BB 3E 64 B7 BB 3E 
12:40:35:7960 Rx 1 0x188 s 8 D1 00 3E FF 05 FE 00 00 
12:40:35:7960 Rx 1 0x189 s 4 00 00 FD FF 
12:40:35:8100 Rx 1 0x18B s 8 01 40 1B 00 C7 FF 00 00 
12:40:35:8100 Rx 1 0x18C s 8 F8 3E 69 0B 29 01 CB FF 
12:40:35:8110 Rx 1 0x18D s 8 FF 3F 92 00 E5 00 FE FF 
12:40:35:8110 Rx 1 0x18E s 8 C6 39 74 E4 8F FF CA FF 
12:40:35:8760 Rx 1 0x18B s 8 01 40 0A 00 D1 FF 00 00 
12:40:35:8760 Rx 1 0x18C s 8 F2 3E 95 0B BB 00 DE FF 
12:40:35:8770 Rx 1 0x18D s 8 00 40 C8 00 72 00 FF FF 
12:40:35:8770 Rx 1 0x18E s 8 E9 39 C1 E4 22 FF 98 FF 
12:40:35:9420 Rx 1 0x18B s 8 01 40 1A 00 0A 00 00 00 
12:40:35:9420 Rx 1 0x18C s 8 EE 3E B0 0B 5B 00 F0 FF 
12:40:35:9430 Rx 1 0x18D s 8 FF 3F 26 01 0C 00 00 00 
12:40:35:9430 Rx 1 0x18E s 8 1F 3A 3A E5 CC FE 72 FF 
12:40:35:9940 Rx 1 0x181 s 7 00 00 00 00 00 00 00 
12:40:35:9940 Rx 1 0x182 s 3 00 D1 02 
12:40:35:9950 Rx 1 0x184 s 8 FC 05 E8 3E FC 05 E8 3E 
12:40:35:9950 Rx 1 0x185 s 4 ED 85 CE 40 
12:40:35:9950 Rx 1 0x186 s 8 FC 05 E8 3E FC 05 E8 3E 
12:40:35:9960 Rx 1 0x188 s 8 D3 00 4C FF 0A FE 00 00 
12:40:35:9960 Rx 1 0x189 s 4 01 00 02 00 
12:40:36:0080 Rx 1 0x18B s 8 01 40 1A 00 0A 00 00 00 
12:40:36:0080 Rx 1 0x18C s 8 EE 3E B0 0B 5B 00 F0 FF 
12:40:36:0090 Rx 1 0x18D s 8 FF 3F 26 01 0C 00 00 00 
12:40:36:0090 Rx 1 0x18E s 8 1F 3A 3A E5 CC FE 72 FF 
12:40:36:0740 Rx 1 0x18B s 8 01 40 13 00 1A 00 00 00 
12:40:36:0740 Rx 1 0x18C s 8 E4 3E E2 0B 2C 00 F8 FF 
12:40:36:0750 Rx 1 0x18D s 8 F9 3F 05 02 A9 FF 02 00 
12:40:36:0750 Rx 1 0x18E s 8 85 3A 22 E6 71 FE 50 FF 
12:40:36:1400 Rx 1 0x18B s 8 01 40 11 00 37 00 00 00 
12:40:36:1400 Rx 1 0x18C s 8 CF 3E 4F 0C 48 00 F2 FF 
12:40:36:1410 Rx 1 0x18D s 8 F5 3F 80 02 C5 FF 02 00 
12:40:36:1410 Rx 1 0x18E s 8 B6 3A 91 E6 84 FE 5C FF 
12:40:36:1940 Rx 1 0x181 s 7 00 00 00 00 00 00 00 
12:40:36:1940 Rx 1 0x182 s 3 00 E9 02 
12:40:36:1950 Rx 1 0x184 s 8 2D 81 23 3F 2D 81 23 3F 
12:40:36:1950 Rx 1 0x185 s 4 85 EB CE 40 
12:40:36:1950 Rx 1 0x186 s 8 2D 81 23 3F 2D 81 23 3F 
12:40:36:1960 Rx 1 0x188 s 8 E9 00 4E FF 0B FE 00 00 
12:40:36:1960 Rx 1 0x189 s 4 00 00 00 00 
12:40:36:2060 Rx 1 0x18B s 8 01 40 11 00 37 00 00 00 
12:40:36:2060 Rx 1 0x18C s 8 CF 3E 4F 0C 48 00 F2 FF 
12:40:36:2070 Rx 1 0x18D s 8 F5 3F 80 02 C5 FF 02 00 
12:40:36:2070 Rx 1 0x18E s 8 B6 3A 91 E6 84 FE 5C FF 
12:40:36:2720 Rx 1 0x18B s 8 01 40 0F 00 F5 FF 00 00 
12:40:36:2720 Rx 1 0x18C s 8 98 3E 5D 0D 4D 00 F0 FF 
12:40:36:2730 Rx 1 0x18D s 8 EB 3F 51 03 D6 FF 02 00 
12:40:36:2730 Rx 1 0x18E s 8 0C 3B 59 E7 9E FE 6C FF 
12:40:36:3380 Rx 1 0x18B s 8 01 40 1C 00 3E 00 00 00 
12:40:36:3380 Rx 1 0x18C s 8 2F 3E 27 0F 3E 00 F1 FF 
12:40:36:3390 Rx 1 0x18D s 8 DD 3F 42 04 CF FF 03 00 
12:40:36:3390 Rx 1 0x18E s 8 67 3B 37 E8 8B FE 6B FF 
12:40:36:3940 Rx 1 0x181 s 7 00 00 00 00 00 00 00 
12:40:36:3940 Rx 1 0x182 s 3 00 12 03 
12:40:36:3950 Rx 1 0x184 s 8 57 A0 8D 3F 57 A0 8D 3F 
12:40:36:3950 Rx 1 0x185 s 4 FC 8B CB 40 
12:40:36:3950 Rx 1 0x186 s 8 57 A0 8D 3F 57 A0 8D 3F 
12:40:36:3960 Rx 1 0x188 s 8 23 01 3C FF 0B FE 00 00 
12:40:36:3960 Rx 1 0x189 s 4 01 00 02 00 
12:40:36:4040 Rx 1 0x18B s 8 01 40 1C 00 3E 00 00 00 
12:40:36:4040 Rx 1 0x18C s 8 2F 3E 27 0F 3E 00 F1 FF 
12:40:36:4050 Rx 1 0x18D s 8 DD 3F 42 04 CF FF 03 00 
12:40:36:4050 Rx 1 0x18E s 8 67 3B 37 E8 8B FE 6B FF 
12:40:36:4700 Rx 1 0x18B s 8 01 40 FD FF 25 00 00 00 
12:40:36:4700 Rx 1 0x18C s 8 D2 3D 95 10 F7 FF 02 00 
12:40:36:4710 Rx 1 0x18D s 8 BE 3F C2 05 6C FF 0D 00 
12:40:36:4710 Rx 1 0x18E s 8 EF 3B 9E E9 32 FE 54 FF 
12:40:36:5360 Rx 1 0x18B s 8 01 40 0F 00 32 00 00 00 
12:40:36:5360 Rx 1 0x18C s 8 66 3D 14 12 F3 FF 03 00 
12:40:36:5370 Rx 1 0x18D s 8 A4 3F D1 06 74 FF 0F 00 
12:40:36:5370 Rx 1 0x18E s 8 4A 3C 99 EA 32 FE 5C FF 
12:40:36:5940 Rx 1 0x181 s 7 00 00 00 00 00 00 00 
12:40:36:5940 Rx 1 0x182 s 3 00 3E 03 
12:40:36:5950 Rx 1 0x184 s 8 3D 28 D2 3F 3D 28 D2 3F 
12:40:36:5950 Rx 1 0x185 s 4 20 1A C7 40 
12:40:36:5950 Rx 1 0x186 s 8 3D 28 D2 3F 3D 28 D2 3F 
12:40:36:5960 Rx 1 0x188 s 8 5A 01 31 FF 0A FE 00 00 
12:40:36:5960 Rx 1 0x189 s 4 02 00 01 00 
12:40:36:6020 Rx 1 0x18B s 8 01 40 0F 00 32 00 00 00 
12:40:36:6020 Rx 1 0x18C s 8 66 3D 14 12 F3 FF 03 00 
12:40:36:6030 Rx 1 0x18D s 8 A4 3F D1 06 74 FF 0F 00 
12:40:36:6030 Rx 1 0x18E s 8 4A 3C 99 EA 32 FE 5C FF 
12:40:36:6680 Rx 1 0x18B s 8 01 40 11 00 1F 00 00 00 
12:40:36:6680 Rx 1 0x18C s 8 F1 3C 92 13 25 00 F4 FF 
12:40:36:6690 Rx 1 0x18D s 8 7A 3F 35 08 A9 FF 0B 00 
12:40:36:6690 Rx 1 0x18E s 8 C4 3C F7 EB 64 FE 79 FF 
12:40:36:7340 Rx 1 0x18B s 8 01 40 13 00 11 00 00 00 
12:40:36:7340 Rx 1 0x18C s 8 88 3C CD 14 26 00 F3 FF 
12:40:36:7350 Rx 1 0x18D s 8 49 3F 95 09 B8 FF 0A 00 
12:40:36:7350 Rx 1 0x18E s 8 28 3D 30 ED 7F FE 8A FF 
12:40:36:7940 Rx 1 0x181 s 7 00 00 00 00 00 00 00 
12:40:36:7940 Rx 1 0x182 s 3 00 6A 03 
12:40:36:7950 Rx 1 0x184 s 8 34 6B 0A 40 34 6B 0A 40 
12:40:36:7950 Rx 1 0x185 s 4 8F 99 C1 40 
12:40:36:7950 Rx 1 0x186 s 8 34 6B 0A 40 34 6B 0A 40 
12:40:36:7960 Rx 1 0x188 s 8 86 01 32 FF 09 FE 00 00 
12:40:36:7960 Rx 1 0x189 s 4 01 00 00 00 
12:40:36:8000 Rx 1 0x18B s 8 01 40 13 00 11 00 00 00 
12:40:36:8000 Rx 1 0x18C s 8 88 3C CD 14 26 00 F3 FF 
12:40:36:8010 Rx 1 0x18D s 8 49 3F 95 09 B8 FF 0A 00 
12:40:36:8010 Rx 1 0x18E s 8 28 3D 30 ED 7F FE 8A FF 
12:40:36:8660 Rx 1 0x18B s 8 01 40 0E 00 1F 00 00 00 
12:40:36:8660 Rx 1 0x18C s 8 27 3C E0 15 03 00 FF FF 
12:40:36:8670 Rx 1 0x18D s 8 1F 3F 98 0A AE FF 0D 00 
12:40:36:8670 Rx 1 0x18E s 8 72 3D 27 EE 7F FE 91 FF 
12:40:36:9320 Rx 1 0x18B s 8 01 40 10 00 11 00 00 00 
12:40:36:9320 Rx 1 0x18C s 8 C0 3B F3 16 28 00 F1 FF 
12:40:36:9330 Rx 1 0x18D s 8 EB 3E BD 0B C7 FF 0A 00 
12:40:36:9330 Rx 1 0x18E s 8 C4 3D 49 EF 98 FE 9F FF 
12:40:36:9940 Rx 1 0x181 s 7 00 00 00 00 00 00 00 
12:40:36:9940 Rx 1 0x182 s 3 00 94 03 
12:40:36:9950 Rx 1 0x184 s 8 DD 22 24 40 DD 22 24 40 
12:40:36:9950 Rx 1 0x185 s 4 24 2F BC 40 
12:40:36:9950 Rx 1 0x186 s 8 DD 22 24 40 DD 22 24 40 
12:40:36:9960 Rx 1 0x188 s 8 B2 01 30 FF 0A FE 00 00 
12:40:36:9960 Rx 1 0x189 s 4 01 00 02 00 
12:40:36:9980 Rx 1 0x18B s 8 01 40 10 00 11 00 00 00 
12:40:36:9980 Rx 1 0x18C s 8 C0 3B F3 16 28 00 F1 FF 
12:40:36:9990 Rx 1 0x18D s 8 EB 3E BD 0B C7 FF 0A 00 
12:40:36:9990 Rx 1 0x18E s 8 C4 3D 49 EF 98 FE 9F FF 
12:40:37:0640 Rx 1 0x18B s 8 01 40 13 00 1F 00 00 00 
12:40:37:0640 Rx 1 0x18C s 8 4D 3B 16 18 21 00 F3 FF 
12:40:37:0650 Rx 1 0x18D s 8 AF 3E EF 0C B9 FF 0E 00 
12:40:37:0650 Rx 1 0x18E s 8 17 3E 87 F0 88 FE A3 FF 
12:40:37:1300 Rx 1 0x18B s 8 01 40 0C 00 19 00 00 00 
12:40:37:1300 Rx 1 0x18C s 8 FA 3A DE 18 21 00 F3 FF 
12:40:37:1310 Rx 1 0x18D s 8 77 3E F6 0D A8 FF 13 00 
12:40:37:1310 Rx 1 0x18E s 8 57 3E 93 F1 80 FE A8 FF 
12:40:37:1940 Rx 1 0x181 s 7 00 00 00 00 00 00 00 
12:40:37:1940 Rx 1 0x182 s 3 00 BA 03 
12:40:37:1950 Rx 1 0x184 s 8 25 82 3C 40 25 82 3C 40 
12:40:37:1950 Rx 1 0x185 s 4 56 86 B6 40 
12:40:37:1950 Rx 1 0x186 s 8 25 82 3C 40 25 82 3C 40 
12:40:37:1960 Rx 1 0x188 s 8 D3 01 35 FF 0B FE 00 00 
12:40:37:1960 Rx 1 0x189 s 4 00 00 01 00 
12:40:37:1970 Rx 1 0x18B s 8 01 40 0C 00 19 00 00 00 
12:40:37:1970 Rx 1 0x18C s 8 FA 3A DE 18 21 00 F3 FF 
12:40:37:1980 Rx 1 0x18D s 8 77 3E F6 0D A8 FF 13 00 
12:40:37:1980 Rx 1 0x18E s 8 57 3E 93 F1 80 FE A8 FF 
12:40:37:2620 Rx 1 0x18B s 8 01 40 15 00 23 00 00 00 
12:40:37:2620 Rx 1 0x18C s 8 A2 3A AB 19 18 00 F6 FF 
12:40:37:2630 Rx 1 0x18D s 8 3D 3E EF 0E A4 FF 16 00 
12:40:37:2630 Rx 1 0x18E s 8 8C 3E 83 F2 6E FE AA FF 
12:40:37:3280 Rx 1 0x18B s 8 01 40 13 00 01 00 00 00 
12:40:37:3280 Rx 1 0x18C s 8 38 3A 98 1A 02 00 FF FF 
12:40:37:3290 Rx 1 0x18D s 8 F9 3D FF 0F 70 FF 25 00 
12:40:37:3290 Rx 1 0x18E s 8 C8 3E A9 F3 60 FE AF FF 
12:40:37:3940 Rx 1 0x181 s 7 00 00 00 00 00 00 00 
12:40:37:3940 Rx 1 0x182 s 3 00 E4 03 
12:40:37:3950 Rx 1 0x184 s 8 54 27 52 40 54 27 52 40 
12:40:37:3950 Rx 1 0x185 s 4 51 9D B0 40 
12:40:37:3950 Rx 1 0x186 s 8 54 27 52 40 54 27 52 40 
12:40:37:3960 Rx 1 0x188 s 8 FC 01 36 FF 0C FE 00 00 
12:40:37:3960 Rx 1 0x189 s 4 00 00 00 00 
12:40:37:3970 Rx 1 0x18B s 8 01 40 13 00 01 00 00 00 
12:40:37:3970 Rx 1 0x18C s 8 38 3A 98 1A 02 00 FF FF 
12:40:37:3980 Rx 1 0x18D s 8 F9 3D FF 0F 70 FF 25 00 
12:40:37:4600 Rx 1 0x18B s 8 01 40 0F 00 18 00 00 00 
12:40:37:4600 Rx 1 0x18C s 8 A7 39 CD 1B 2B 00 EC FF 
12:40:37:4610 Rx 1 0x18D s 8 AA 3D 26 11 91 FF 1E 00 
12:40:37:4610 Rx 1 0x18E s 8 04 3F E5 F4 88 FE BE FF 
12:40:37:5260 Rx 1 0x18B s 8 01 40 12 00 06 00 00 00 
12:40:37:5260 Rx 1 0x18C s 8 0D 39 03 1D 31 00 E7 FF 
12:40:37:5270 Rx 1 0x18D s 8 48 3D 78 12 99 FF 1F 00 
12:40:37:5270 Rx 1 0x18E s 8 3B 3F 2B F6 94 FE C8 FF 
12:40:37:5920 Rx 1 0x18B s 8 01 40 12 00 06 00 00 00 
12:40:37:5920 Rx 1 0x18C s 8 0D 39 03 1D 31 00 E7 FF 
12:40:37:5930 Rx 1 0x18D s 8 48 3D 78 12 99 FF 1F 00 
12:40:37:5930 Rx 1 0x18E s 8 3B 3F 2B F6 94 FE C8 FF 
12:40:37:5940 Rx 1 0x181 s 7 00 00 00 00 00 00 00 
12:40:37:5940 Rx 1 0x182 s 3 00 12 04 
12:40:37:5950 Rx 1 0x184 s 8 B2 22 6D 40 B2 22 6D 40 
12:40:37:5950 Rx 1 0x185 s 4 40 47 A7 40 
12:40:37:5950 Rx 1 0x186 s 8 B2 22 6D 40 B2 22 6D 40 
12:40:37:5960 Rx 1 0x188 s 8 28 02 36 FF 0C FE 00 00 
12:40:37:5960 Rx 1 0x189 s 4 01 00 00 00 
12:40:37:6580 Rx 1 0x18B s 8 01 40 16 00 1A 00 00 00 
12:40:37:6580 Rx 1 0x18C s 8 83 38 0D 1E 13 00 F6 FF 
12:40:37:6590 Rx 1 0x18D s 8 E8 3C AA 13 7B FF 2B 00 
12:40:37:6590 Rx 1 0x18E s 8 68 3F 65 F7 7A FE CC FF 
12:40:37:7240 Rx 1 0x18B s 8 01 40 1C 00 F0 FF 00 00 
12:40:37:7240 Rx 1 0x18C s 8 08 38 F0 1E 00 00 00 00 
12:40:37:7250 Rx 1 0x18D s 8 95 3C A4 14 7D FF 2C 00 
12:40:37:7250 Rx 1 0x18E s 8 88 3F 65 F8 73 FE D1 FF 
12:40:37:7900 Rx 1 0x18B s 8 01 40 1C 00 F0 FF 00 00 
12:40:37:7900 Rx 1 0x18C s 8 08 38 F0 1E 00 00 00 00 
12:40:37:7910 Rx 1 0x18D s 8 95 3C A4 14 7D FF 2C 00 
12:40:37:7910 Rx 1 0x18E s 8 88 3F 65 F8 73 FE D1 FF 
12:40:37:7940 Rx 1 0x181 s 7 00 00 00 00 00 00 00 
12:40:37:7940 Rx 1 0x182 s 3 00 33 04 
12:40:37:7950 Rx 1 0x184 s 8 3D 74 81 40 3D 74 81 40 
12:40:37:7950 Rx 1 0x185 s 4 E3 BF 9E 40 
12:40:37:7950 Rx 1 0x186 s 8 3D 74 81 40 3D 74 81 40 
12:40:37:7960 Rx 1 0x188 s 8 49 02 36 FF 0C FE 00 00 
12:40:37:7960 Rx 1 0x189 s 4 01 00 00 00 
12:40:37:8560 Rx 1 0x18B s 8 01 40 18 00 18 00 00 00 
12:40:37:8560 Rx 1 0x18C s 8 B8 37 7F 1F EB FF 0C 00 
12:40:37:8570 Rx 1 0x18D s 8 5D 3C 47 15 73 FF 32 00 
12:40:37:8570 Rx 1 0x18E s 8 9D 3F 16 F9 71 FE D5 FF 
12:40:37:9220 Rx 1 0x18B s 8 01 40 1D 00 F8 FF 00 00 
12:40:37:9220 Rx 1 0x18C s 8 93 37 C0 1F E1 FF 12 00 
12:40:37:9230 Rx 1 0x18D s 8 2E 3C C9 15 54 FF 3E 00 
12:40:37:9230 Rx 1 0x18E s 8 A9 3F 90 F9 6D FE D8 FF 
12:40:37:9880 Rx 1 0x18B s 8 01 40 1D 00 F8 FF 00 00 
12:40:37:9880 Rx 1 0x18C s 8 93 37 C0 1F E1 FF 12 00 
12:40:37:9890 Rx 1 0x18D s 8 2E 3C C9 15 54 FF 3E 00 
12:40:37:9890 Rx 1 0x18E s 8 A9 3F 90 F9 6D FE D8 FF 
12:40:37:9940 Rx 1 0x181 s 7 00 00 00 00 00 00 00 
12:40:37:9940 Rx 1 0x182 s 3 00 44 04 
12:40:37:9950 Rx 1 0x184 s 8 29 81 86 40 29 81 86 40 
12:40:37:9950 Rx 1 0x185 s 4 23 AB 9A 40 
12:40:37:9950 Rx 1 0x186 s 8 29 81 86 40 29 81 86 40 
12:40:37:9960 Rx 1 0x188 s 8 55 02 3C FF 0A FE 00 00 
12:40:37:9960 Rx 1 0x189 s 4 02 00 01 00 
12:40:38:0540 Rx 1 0x18B s 8 01 40 0D 00 FF FF 00 00 
12:40:38:0540 Rx 1 0x18C s 8 5A 37 23 20 F4 FF 07 00 
12:40:38:0550 Rx 1 0x18D s 8 0C 3C 28 16 66 FF 39 00 
12:40:38:0550 Rx 1 0x18E s 8 B3 3F F1 F9 7C FE DC FF 
12:40:38:1200 Rx 1 0x18B s 8 01 40 07 00 05 00 00 00 
12:40:38:1200 Rx 1 0x18C s 8 0E 37 A5 20 FB FF 03 00 
12:40:38:1210 Rx 1 0x18D s 8 D0 3B C8 16 75 FF 34 00 
12:40:38:1210 Rx 1 0x18E s 8 C1 3F 8C FA 7F FE E0 FF 
12:40:38:1860 Rx 1 0x18B s 8 01 40 07 00 05 00 00 00 
12:40:38:1860 Rx 1 0x18C s 8 0E 37 A5 20 FB FF 03 00 
12:40:38:1870 Rx 1 0x18D s 8 D0 3B C8 16 75 FF 34 00 
12:40:38:1870 Rx 1 0x18E s 8 C1 3F 8C FA 7F FE E0 FF 
12:40:38:1940 Rx 1 0x181 s 7 00 00 00 00 00 00 00 
12:40:38:1940 Rx 1 0x182 s 3 00 5C 04 
12:40:38:1950 Rx 1 0x184 s 8 8A 28 8B 40 8A 28 8B 40 
12:40:38:1950 Rx 1 0x185 s 4 C0 33 96 40 
12:40:38:1950 Rx 1 0x186 s 8 8A 28 8B 40 8A 28 8B 40 
12:40:38:1960 Rx 1 0x188 s 8 6E 02 38 FF 0E FE 00 00 
12:40:38:1960 Rx 1 0x189 s 4 00 00 00 00 
12:40:38:2520 Rx 1 0x18B s 8 01 40 15 00 0B 00 00 00 
12:40:38:2520 Rx 1 0x18C s 8 A6 36 51 21 0B 00 F9 FF 
12:40:38:2530 Rx 1 0x18D s 8 9F 3B 47 17 94 FF 2A 00 
12:40:38:2530 Rx 1 0x18E s 8 D1 3F 4D FB 88 FE E5 FF 
12:40:38:3180 Rx 1 0x18B s 8 01 40 15 00 08 00 00 00 
12:40:38:3180 Rx 1 0x18C s 8 46 36 ED 21 F8 FF 05 00 
12:40:38:3190 Rx 1 0x18D s 8 59 3B F8 17 85 FF 31 00 
12:40:38:3190 Rx 1 0x18E s 8 DD 3F 08 FC 7F FE E9 FF 
12:40:38:3840 Rx 1 0x18B s 8 01 40 15 00 08 00 00 00 
12:40:38:3840 Rx 1 0x18C s 8 46 36 ED 21 F8 FF 05 00 
12:40:38:3850 Rx 1 0x18D s 8 59 3B F8 17 85 FF 31 00 
12:40:38:3850 Rx 1 0x18E s 8 DD 3F 08 FC 7F FE E9 FF 
12:40:38:3940 Rx 1 0x181 s 7 00 00 00 00 00 00 00 
12:40:38:3940 Rx 1 0x182 s 3 00 73 04 
12:40:38:3950 Rx 1 0x184 s 8 09 6E 91 40 09 6E 91 40 
12:40:38:3950 Rx 1 0x185 s 4 11 CB 8F 40 
12:40:38:3950 Rx 1 0x186 s 8 09 6E 91 40 09 6E 91 40 
12:40:38:3960 Rx 1 0x188 s 8 86 02 39 FF 0D FE 00 00 
12:40:38:3960 Rx 1 0x189 s 4 00 00 01 00 
12:40:38:4500 Rx 1 0x18B s 8 01 40 0A 00 0E 00 00 00 
12:40:38:4500 Rx 1 0x18C s 8 F9 35 68 22 DD FF 16 00 
12:40:38:4510 Rx 1 0x18D s 8 1F 3B 85 18 66 FF 40 00 
12:40:38:4510 Rx 1 0x18E s 8 E5 3F 9C FC 61 FE EA FF 
12:40:38:5160 Rx 1 0x18B s 8 01 40 07 00 21 00 00 00 
12:40:38:5160 Rx 1 0x18C s 8 98 35 FE 22 EA FF 0E 00 
12:40:38:5170 Rx 1 0x18D s 8 E3 3A 13 19 67 FF 41 00 
12:40:38:5170 Rx 1 0x18E s 8 ED 3F 2F FD 69 FE EF FF 
12:40:38:5820 Rx 1 0x18B s 8 01 40 07 00 21 00 00 00 
12:40:38:5820 Rx 1 0x18C s 8 98 35 FE 22 EA FF 0E 00 
12:40:38:5830 Rx 1 0x18D s 8 E3 3A 13 19 67 FF 41 00 
12:40:38:5830 Rx 1 0x18E s 8 ED 3F 2F FD 69 FE EF FF 
12:40:38:5940 Rx 1 0x181 s 7 00 00 00 00 00 00 00 
12:40:38:5940 Rx 1 0x182 s 3 00 89 04 
12:40:38:5950 Rx 1 0x184 s 8 BC 74 96 40 BC 74 96 40 
12:40:38:5950 Rx 1 0x185 s 4 88 03 8A 40 
12:40:38:5950 Rx 1 0x186 s 8 BC 74 96 40 BC 74 96 40 
12:40:38:5960 Rx 1 0x188 s 8 9E 02 37 FF 0C FE 00 00 
12:40:38:5960 Rx 1 0x189 s 4 01 00 00 00 
12:40:38:6480 Rx 1 0x18B s 8 01 40 14 00 F4 FF 00 00 
12:40:38:6480 Rx 1 0x18C s 8 2F 35 9C 23 FE FF 01 00 
12:40:38:6490 Rx 1 0x18D s 8 9E 3A B3 19 7B FF 3A 00 
12:40:38:6490 Rx 1 0x18E s 8 F4 3F D6 FD 83 FE F4 FF 
12:40:38:7140 Rx 1 0x18B s 8 01 40 14 00 F4 FF 00 00 
12:40:38:7140 Rx 1 0x18C s 8 2F 35 9C 23 FE FF 01 00 
12:40:38:7150 Rx 1 0x18D s 8 9E 3A B3 19 7B FF 3A 00 
12:40:38:7150 Rx 1 0x18E s 8 F4 3F D6 FD 83 FE F4 FF 
12:40:38:7800 Rx 1 0x18B s 8 01 40 14 00 E0 FF 00 00 
12:40:38:7800 Rx 1 0x18C s 8 A5 34 68 24 00 00 00 00 
12:40:38:7810 Rx 1 0x18D s 8 25 3A C1 1A 84 FF 39 00 
12:40:38:7810 Rx 1 0x18E s 8 FB 3F D7 FE 9C FE FA FF 
12:40:38:7940 Rx 1 0x181 s 7 00 00 00 00 00 00 00 
12:40:38:7940 Rx 1 0x182 s 3 00 AA 04 
12:40:38:7950 Rx 1 0x184 s 8 6E 5C 9D 40 6E 5C 9D 40 
12:40:38:7950 Rx 1 0x185 s 4 08 A7 81 40 
12:40:38:7950 Rx 1 0x186 s 8 6E 5C 9D 40 6E 5C 9D 40 
12:40:38:7960 Rx 1 0x188 s 8 BE 02 3B FF 09 FE 00 00 
12:40:38:7960 Rx 1 0x189 s 4 01 00 FE FF 
12:40:38:8460 Rx 1 0x18B s 8 01 40 09 00 E4 FF 00 00 
12:40:38:8460 Rx 1 0x18C s 8 25 34 1E 25 17 00 F0 FF 
12:40:38:8470 Rx 1 0x18D s 8 BC 39 A0 1B A3 FF 2C 00 
12:40:38:8470 Rx 1 0x18E s 8 FE 3F CC FF BB FE FF FF 
12:40:38:9120 Rx 1 0x18B s 8 01 40 09 00 E4 FF 00 00 
12:40:38:9120 Rx 1 0x18C s 8 25 34 1E 25 17 00 F0 FF 
12:40:38:9130 Rx 1 0x18D s 8 BC 39 A0 1B A3 FF 2C 00 
12:40:38:9130 Rx 1 0x18E s 8 FE 3F CC FF BB FE FF FF 
12:40:38:9780 Rx 1 0x18B s 8 01 40 11 00 F0 FF 00 00 
12:40:38:9780 Rx 1 0x18C s 8 BC 33 B0 25 0C 00 F7 FF 
12:40:38:9790 Rx 1 0x18D s 8 81 39 1A 1C B3 FF 26 00 
12:40:38:9790 Rx 1 0x18E s 8 FE 3F 8E 00 DC FE 02 00 
12:40:38:9940 Rx 1 0x181 s 7 00 00 00 00 00 00 00 
12:40:38:9940 Rx 1 0x182 s 3 00 C5 04 
12:40:38:9950 Rx 1 0x184 s 8 B9 4A A3 40 B9 4A A3 40 
12:40:38:9950 Rx 1 0x185 s 4 8B C5 73 40 
12:40:38:9950 Rx 1 0x186 s 8 B9 4A A3 40 B9 4A A3 40 
12:40:38:9960 Rx 1 0x188 s 8 DB 02 35 FF 0D FE 00 00 
12:40:38:9960 Rx 1 0x189 s 4 00 00 FD FF 
12:40:39:0440 Rx 1 0x18B s 8 01 40 0B 00 EB FF 00 00 
12:40:39:0440 Rx 1 0x18C s 8 3C 33 5C 26 1A 00 ED FF 
12:40:39:0450 Rx 1 0x18D s 8 35 39 B3 1C B8 FF 24 00 
12:40:39:0450 Rx 1 0x18E s 8 FC 3F 3E 01 F0 FE 05 00 
12:40:39:1100 Rx 1 0x18B s 8 01 40 0B 00 EB FF 00 00 
12:40:39:1100 Rx 1 0x18C s 8 3C 33 5C 26 1A 00 ED FF 
12:40:39:1110 Rx 1 0x18D s 8 35 39 B3 1C B8 FF 24 00 
12:40:39:1110 Rx 1 0x18E s 8 FC 3F 3E 01 F0 FE 05 00 
12:40:39:1760 Rx 1 0x18B s 8 01 40 0C 00 E4 FF 00 00 
12:40:39:1760 Rx 1 0x18C s 8 C1 32 FE 26 21 00 E7 FF 
12:40:39:1770 Rx 1 0x18D s 8 D2 38 76 1D C0 FF 21 00 
12:40:39:1770 Rx 1 0x18E s 8 F7 3F 15 02 00 FF 08 00 
12:40:39:1940 Rx 1 0x181 s 7 00 00 00 00 00 00 00 
12:40:39:1940 Rx 1 0x182 s 3 00 DD 04 
12:40:39:1950 Rx 1 0x184 s 8 25 B0 A8 40 25 B0 A8 40 
12:40:39:1950 Rx 1 0x185 s 4 40 2B 63 40 
12:40:39:1950 Rx 1 0x186 s 8 25 B0 A8 40 25 B0 A8 40 
12:40:39:1960 Rx 1 0x188 s 8 F6 02 36 FF 0A FE 00 00 
12:40:39:1960 Rx 1 0x189 s 4 00 00 FD FF 
12:40:39:2420 Rx 1 0x18B s 8 01 40 10 00 DD FF 00 00 
12:40:39:2420 Rx 1 0x18C s 8 5F 32 7D 27 0E 00 F5 FF 
12:40:39:2430 Rx 1 0x18D s 8 8A 38 FF 1D AF FF 2B 00 
12:40:39:2430 Rx 1 0x18E s 8 F6 3F 09 02 BB FE 0A 00 
12:40:39:3080 Rx 1 0x18B s 8 01 40 10 00 DD FF 00 00 
12:40:39:3080 Rx 1 0x18C s 8 5F 32 7D 27 0E 00 F5 FF 
12:40:39:3090 Rx 1 0x18D s 8 8A 38 FF 1D AF FF 2B 00 
12:40:39:3090 Rx 1 0x18E s 8 F6 3F 09 02 BB FE 0A 00 
12:40:39:3740 Rx 1 0x18B s 8 01 40 09 00 D3 FF 00 00 
12:40:39:3740 Rx 1 0x18C s 8 D2 31 2E 28 12 00 F1 FF 
12:40:39:3750 Rx 1 0x18D s 8 4D 38 72 1E AD FF 2D 00 
12:40:39:3750 Rx 1 0x18E s 8 F2 3F 76 02 B2 FE 0C 00 
12:40:39:3940 Rx 1 0x181 s 7 00 00 00 00 00 00 00 
12:40:39:3940 Rx 1 0x182 s 3 00 E7 04 
12:40:39:3950 Rx 1 0x184 s 8 85 A9 AB 40 85 A9 AB 40 
12:40:39:3950 Rx 1 0x185 s 4 03 88 54 40 
12:40:39:3950 Rx 1 0x186 s 8 85 A9 AB 40 85 A9 AB 40 
12:40:39:3960 Rx 1 0x188 s 8 13 03 2E FF FF FD 00 00 
12:40:39:3960 Rx 1 0x189 s 4 00 00 FD FF 
12:40:39:4400 Rx 1 0x18B s 8 01 40 15 00 DE FF 00 00 
12:40:39:4400 Rx 1 0x18C s 8 5A 31 C2 28 14 00 F0 FF 
12:40:39:4410 Rx 1 0x18D s 8 F6 37 11 1F AE FF 2D 00 
12:40:39:4410 Rx 1 0x18E s 8 EB 3F 1B 03 BE FE 0F 00 
12:40:39:5060 Rx 1 0x18B s 8 01 40 15 00 DE FF 00 00 
12:40:39:5060 Rx 1 0x18C s 8 5A 31 C2 28 14 00 F0 FF 
12:40:39:5070 Rx 1 0x18D s 8 F6 37 11 1F AE FF 2D 00 
12:40:39:5070 Rx 1 0x18E s 8 EB 3F 1B 03 BE FE 0F 00 
12:40:39:5720 Rx 1 0x18B s 8 01 40 FC FF D4 FF 00 00 
12:40:39:5720 Rx 1 0x18C s 8 22 31 05 29 10 00 F3 FF 
12:40:39:5730 Rx 1 0x18D s 8 AC 37 93 1F A8 FF 32 00 
12:40:39:5730 Rx 1 0x18E s 8 DC 3F 21 04 CD FE 13 00 
12:40:39:5940 Rx 1 0x181 s 7 00 00 00 00 00 00 00 
12:40:39:5940 Rx 1 0x182 s 3 00 04 05 
12:40:39:5950 Rx 1 0x184 s 8 C8 E0 AF 40 C8 E0 AF 40 
12:40:39:5950 Rx 1 0x185 s 4 4C ED 47 40 
12:40:39:5950 Rx 1 0x186 s 8 C8 E0 AF 40 C8 E0 AF 40 
12:40:39:5960 Rx 1 0x188 s 8 1F 03 36 FF 06 FE 00 00 
12:40:39:5960 Rx 1 0x189 s 4 01 00 FF FF 
12:40:39:6380 Rx 1 0x18B s 8 01 40 FA FF EA FF 00 00 
12:40:39:6380 Rx 1 0x18C s 8 F9 30 35 29 34 00 D4 FF 
12:40:39:6390 Rx 1 0x18D s 8 46 37 46 20 D4 FF 1A 00 
12:40:39:6390 Rx 1 0x18E s 8 CF 3F E9 04 03 FF 13 00 
12:40:39:7040 Rx 1 0x18B s 8 01 40 FA FF EA FF 00 00 
12:40:39:7040 Rx 1 0x18C s 8 F9 30 35 29 34 00 D4 FF 
12:40:39:7050 Rx 1 0x18D s 8 46 37 46 20 D4 FF 1A 00 
12:40:39:7050 Rx 1 0x18E s 8 CF 3F E9 04 03 FF 13 00 
12:40:39:7700 Rx 1 0x18B s 8 01 40 19 00 D0 FF 00 00 
12:40:39:7700 Rx 1 0x18C s 8 04 31 28 29 4E 00 BF FF 
12:40:39:7710 Rx 1 0x18D s 8 DA 36 FC 20 03 00 FF FF 
12:40:39:7710 Rx 1 0x18E s 8 BE 3F C2 05 53 FF 0F 00 
12:40:39:7940 Rx 1 0x181 s 7 00 00 00 00 00 00 00 
12:40:39:7940 Rx 1 0x182 s 3 00 22 05 
12:40:39:7950 Rx 1 0x184 s 8 4C 92 B3 40 4C 92 B3 40 
12:40:39:7950 Rx 1 0x185 s 4 2A D3 40 40 
12:40:39:7950 Rx 1 0x186 s 8 4C 92 B3 40 4C 92 B3 40 
12:40:39:7960 Rx 1 0x188 s 8 1D 03 54 FF 09 FE 00 00 
12:40:39:7960 Rx 1 0x189 s 4 01 00 FD FF 
12:40:39:8360 Rx 1 0x18B s 8 01 40 15 00 E8 FF 00 00 
12:40:39:8360 Rx 1 0x18C s 8 11 31 19 29 6A 00 A7 FF 
12:40:39:8370 Rx 1 0x18D s 8 AC 36 47 21 24 00 EA FF 
12:40:39:8370 Rx 1 0x18E s 8 B0 3F 5E 06 96 FF 0A 00 
12:40:39:9020 Rx 1 0x18B s 8 01 40 15 00 E8 FF 00 00 
12:40:39:9020 Rx 1 0x18C s 8 11 31 19 29 6A 00 A7 FF 
12:40:39:9030 Rx 1 0x18D s 8 AC 36 47 21 24 00 EA FF 
12:40:39:9030 Rx 1 0x18E s 8 B0 3F 5E 06 96 FF 0A 00 
12:40:39:9680 Rx 1 0x18B s 8 01 40 0C 00 C8 FF 00 00 
12:40:39:9680 Rx 1 0x18C s 8 D3 30 63 29 59 00 B4 FF 
12:40:39:9690 Rx 1 0x18D s 8 88 36 83 21 25 00 EA FF 
12:40:39:9690 Rx 1 0x18E s 8 A6 3F BA 06 A6 FF 09 00 
12:40:39:9940 Rx 1 0x181 s 7 00 00 00 00 00 00 00 
12:40:39:9940 Rx 1 0x182 s 3 00 2F 05 
12:40:39:9950 Rx 1 0x184 s 8 50 86 B5 40 50 86 B5 40 
12:40:39:9950 Rx 1 0x185 s 4 48 10 3C 40 
12:40:39:9950 Rx 1 0x186 s 8 50 86 B5 40 50 86 B5 40 
12:40:39:9960 Rx 1 0x188 s 8 24 03 55 FF 0D FE 00 00 
12:40:39:9960 Rx 1 0x189 s 4 00 00 FD FF 
12:40:40:0340 Rx 1 0x18B s 8 01 40 0D 00 E2 FF 00 00 
12:40:40:0340 Rx 1 0x18C s 8 D8 30 5C 29 40 00 CA FF 
12:40:40:0350 Rx 1 0x18D s 8 72 36 A6 21 01 00 FF FF 
12:40:40:0350 Rx 1 0x18E s 8 A1 3F EA 06 7F FF 0E 00 
12:40:40:1000 Rx 1 0x18B s 8 01 40 0D 00 E2 FF 00 00 
12:40:40:1000 Rx 1 0x18C s 8 D8 30 5C 29 40 00 CA FF 
12:40:40:1010 Rx 1 0x18D s 8 72 36 A6 21 01 00 FF FF 
12:40:40:1010 Rx 1 0x18E s 8 A1 3F EA 06 7F FF 0E 00 
12:40:40:1660 Rx 1 0x18B s 8 01 40 0D 00 E2 FF 00 00 
12:40:40:1660 Rx 1 0x18C s 8 FF 30 2E 29 1D 00 E8 FF 
12:40:40:1670 Rx 1 0x18D s 8 7C 36 96 21 E1 FF 13 00 
12:40:40:1670 Rx 1 0x18E s 8 A2 3F DF 06 56 FF 12 00 
12:40:40:1940 Rx 1 0x181 s 7 00 00 00 00 00 00 00 
12:40:40:1940 Rx 1 0x182 s 3 00 2D 05 
12:40:40:1950 Rx 1 0x184 s 8 F6 99 B5 40 F6 99 B5 40 
12:40:40:1950 Rx 1 0x185 s 4 4A BB 3D 40 
12:40:40:1950 Rx 1 0x186 s 8 F6 99 B5 40 F6 99 B5 40 
12:40:40:1960 Rx 1 0x188 s 8 22 03 56 FF 0E FE 00 00 
12:40:40:1960 Rx 1 0x189 s 4 00 00 FE FF 
12:40:40:2320 Rx 1 0x18B s 8 01 40 0E 00 DD FF 00 00 
12:40:40:2320 Rx 1 0x18C s 8 E5 30 4E 29 33 00 D5 FF 
12:40:40:2330 Rx 1 0x18D s 8 7C 36 97 21 E9 FF 0E 00 
12:40:40:2330 Rx 1 0x18E s 8 A2 3F E2 06 61 FF 11 00 
12:40:40:2980 Rx 1 0x18B s 8 01 40 0E 00 DD FF 00 00 
12:40:40:2980 Rx 1 0x18C s 8 E5 30 4E 29 33 00 D5 FF 
12:40:40:2990 Rx 1 0x18D s 8 7C 36 97 21 E9 FF 0E 00 
12:40:40:2990 Rx 1 0x18E s 8 A2 3F E2 06 61 FF 11 00 
12:40:40:3640 Rx 1 0x18B s 8 01 40 0D 00 D9 FF 00 00 
12:40:40:3640 Rx 1 0x18C s 8 B7 30 83 29 49 00 C1 FF 
12:40:40:3650 Rx 1 0x18D s 8 73 36 A4 21 EC FF 0C 00 
12:40:40:3650 Rx 1 0x18E s 8 9F 3F FA 06 54 FF 12 00 
12:40:40:3940 Rx 1 0x181 s 7 00 00 00 00 00 00 00 
12:40:40:3940 Rx 1 0x182 s 3 00 30 05 
12:40:40:3950 Rx 1 0x184 s 8 3A 10 B6 40 3A 10 B6 40 
12:40:40:3950 Rx 1 0x185 s 4 2C 2D 3A 40 
12:40:40:3950 Rx 1 0x186 s 8 3A 10 B6 40 3A 10 B6 40 
12:40:40:3960 Rx 1 0x188 s 8 25 03 54 FF 0F FE 00 00 
12:40:40:3960 Rx 1 0x189 s 4 01 00 FE FF 
12:40:40:4300 Rx 1 0x18B s 8 01 40 0E 00 D8 FF 00 00 
12:40:40:4300 Rx 1 0x18C s 8 D1 30 65 29 36 00 D3 FF 
12:40:40:4310 Rx 1 0x18D s 8 74 36 A3 21 CF FF 1E 00 
12:40:40:4310 Rx 1 0x18E s 8 9F 3F FB 06 3C FF 15 00 
12:40:40:4960 Rx 1 0x18B s 8 01 40 0E 00 D8 FF 00 00 
12:40:40:4960 Rx 1 0x18C s 8 D1 30 65 29 36 00 D3 FF 
12:40:40:4970 Rx 1 0x18D s 8 74 36 A3 21 CF FF 1E 00 
12:40:40:4970 Rx 1 0x18E s 8 9F 3F FB 06 3C FF 15 00 
12:40:40:5620 Rx 1 0x18B s 8 01 40 30 00 DA FF 00 00 
12:40:40:5620 Rx 1 0x18C s 8 FD 30 31 29 35 00 D4 FF 
12:40:40:5630 Rx 1 0x18D s 8 A4 36 55 21 CB FF 20 00 
12:40:40:5630 Rx 1 0x18E s 8 AF 3F 59 06 1C FF 16 00 
12:40:40:5940 Rx 1 0x181 s 7 00 00 00 00 00 00 00 
12:40:40:5940 Rx 1 0x182 s 3 00 14 05 
12:40:40:5950 Rx 1 0x184 s 8 13 B9 B4 40 13 B9 B4 40 
12:40:40:5950 Rx 1 0x185 s 4 9E DD 3E 40 
12:40:40:5950 Rx 1 0x186 s 8 13 B9 B4 40 13 B9 B4 40 
12:40:40:5960 Rx 1 0x188 s 8 19 03 4D FF 04 FE 00 00 
12:40:40:5960 Rx 1 0x189 s 4 02 00 FF FF 
12:40:40:6280 Rx 1 0x18B s 8 01 40 0B 00 FA FF 00 00 
12:40:40:6280 Rx 1 0x18C s 8 5A 31 C2 28 21 00 E5 FF 
12:40:40:6290 Rx 1 0x18D s 8 24 37 7E 20 B6 FF 2B 00 
12:40:40:6290 Rx 1 0x18E s 8 CC 3F 09 05 D9 FE 17 00 
12:40:40:6940 Rx 1 0x18B s 8 01 40 0B 00 FA FF 00 00 
12:40:40:6940 Rx 1 0x18C s 8 5A 31 C2 28 21 00 E5 FF 
12:40:40:6950 Rx 1 0x18D s 8 24 37 7E 20 B6 FF 2B 00 
12:40:40:6950 Rx 1 0x18E s 8 CC 3F 09 05 D9 FE 17 00 
12:40:40:7600 Rx 1 0x18B s 8 01 40 0A 00 EC FF 00 00 
12:40:40:7600 Rx 1 0x18C s 8 92 31 7E 28 FD FF 02 00 
12:40:40:7610 Rx 1 0x18D s 8 AB 38 BF 1D 8C FF 3C 00 
12:40:40:7610 Rx 1 0x18E s 8 F5 3F FF 01 82 FE 0B 00 
12:40:40:7940 Rx 1 0x181 s 7 00 00 00 00 00 00 00 
12:40:40:7940 Rx 1 0x182 s 3 00 AB 04 
12:40:40:7950 Rx 1 0x184 s 8 12 93 AA 40 12 93 AA 40 
12:40:40:7950 Rx 1 0x185 s 4 80 EC 53 40 
12:40:40:7950 Rx 1 0x186 s 8 12 93 AA 40 12 93 AA 40 
12:40:40:7960 Rx 1 0x188 s 8 10 03 F0 FE 06 FE 00 00 
12:40:40:7960 Rx 1 0x189 s 4 00 00 FF FF 
12:40:40:8260 Rx 1 0x18B s 8 01 40 21 00 07 00 00 00 
12:40:40:8260 Rx 1 0x18C s 8 AB 31 5E 28 BB FF 38 00 
12:40:40:8270 Rx 1 0x18D s 8 54 3A 56 1A 2F FF 5E 00 
12:40:40:8270 Rx 1 0x18E s 8 F5 3F 58 FE 1E FE F4 FF 
12:40:40:8920 Rx 1 0x18B s 8 01 40 21 00 07 00 00 00 
12:40:40:8920 Rx 1 0x18C s 8 AB 31 5E 28 BB FF 38 00 
12:40:40:8930 Rx 1 0x18D s 8 54 3A 56 1A 2F FF 5E 00 
12:40:40:8930 Rx 1 0x18E s 8 F5 3F 58 FE 1E FE F4 FF 
12:40:40:9580 Rx 1 0x18B s 8 01 40 17 00 02 00 00 00 
12:40:40:9580 Rx 1 0x18C s 8 CE 31 32 28 5F FF 82 00 
12:40:40:9590 Rx 1 0x18D s 8 C8 3B D6 16 DC FE 6F 00 
12:40:40:9590 Rx 1 0x18E s 8 B5 3F 42 FA B3 FD CB FF 
12:40:40:9940 Rx 1 0x181 s 7 00 00 00 00 00 00 00 
12:40:40:9940 Rx 1 0x182 s 3 00 1A 04 
12:40:40:9950 Rx 1 0x184 s 8 66 25 97 40 66 25 97 40 
12:40:40:9950 Rx 1 0x185 s 4 80 F1 69 40 
12:40:40:9950 Rx 1 0x186 s 8 66 25 97 40 66 25 97 40 
12:40:40:9960 Rx 1 0x188 s 8 07 03 66 FE 07 FE 00 00 
12:40:40:9960 Rx 1 0x189 s 4 00 00 FF FF 
12:40:41:0240 Rx 1 0x18B s 8 01 40 0E 00 FC FF 00 00 
12:40:41:0240 Rx 1 0x18C s 8 E4 31 15 28 36 FF A2 00 
12:40:41:0250 Rx 1 0x18D s 8 23 3D E9 12 C6 FE 61 00 
12:40:41:0250 Rx 1 0x18E s 8 38 3F 49 F6 9E FD A3 FF 
12:40:41:0900 Rx 1 0x18B s 8 01 40 0E 00 FC FF 00 00 
12:40:41:0900 Rx 1 0x18C s 8 E4 31 15 28 36 FF A2 00 
12:40:41:0910 Rx 1 0x18D s 8 23 3D E9 12 C6 FE 61 00 
12:40:41:0910 Rx 1 0x18E s 8 38 3F 49 F6 9E FD A3 FF 
12:40:41:1560 Rx 1 0x18B s 8 01 40 0D 00 FD FF 00 00 
12:40:41:1560 Rx 1 0x18C s 8 EC 31 0C 28 46 FF 95 00 
12:40:41:1570 Rx 1 0x18D s 8 2B 3E 2D 0F D0 FE 4A 00 
12:40:41:1570 Rx 1 0x18E s 8 7F 3E 64 F2 AD FD 7F FF 
12:40:41:1940 Rx 1 0x181 s 7 00 00 00 00 00 00 00 
12:40:41:1940 Rx 1 0x182 s 3 00 86 03 
12:40:41:1950 Rx 1 0x184 s 8 E1 44 81 40 E1 44 81 40 
12:40:41:1950 Rx 1 0x185 s 4 D4 75 75 40 
12:40:41:1950 Rx 1 0x186 s 8 E1 44 81 40 E1 44 81 40 
12:40:41:1960 Rx 1 0x188 s 8 05 03 D7 FD 03 FE 00 00 
12:40:41:1960 Rx 1 0x189 s 4 00 00 01 00 
12:40:41:2220 Rx 1 0x18B s 8 01 40 19 00 04 00 00 00 
12:40:41:2220 Rx 1 0x18C s 8 E9 31 10 28 61 FF 80 00 
12:40:41:2230 Rx 1 0x18D s 8 08 3F 16 0B 03 FF 2C 00 
12:40:41:2230 Rx 1 0x18E s 8 6A 3D 1E EE D4 FD 5E FF 
12:40:41:2880 Rx 1 0x18B s 8 01 40 19 00 04 00 00 00 
12:40:41:2880 Rx 1 0x18C s 8 E9 31 10 28 61 FF 80 00 
12:40:41:2890 Rx 1 0x18D s 8 08 3F 16 0B 03 FF 2C 00 
12:40:41:2890 Rx 1 0x18E s 8 6A 3D 1E EE D4 FD 5E FF 
12:40:41:3540 Rx 1 0x18B s 8 01 40 11 00 1B 00 00 00 
12:40:41:3540 Rx 1 0x18C s 8 E0 31 1B 28 70 FF 74 00 
12:40:41:3550 Rx 1 0x18D s 8 90 3F 7B 07 28 FF 19 00 
12:40:41:3550 Rx 1 0x18E s 8 3E 3C 7C EA F0 FD 44 FF 
12:40:41:3940 Rx 1 0x181 s 7 00 00 00 00 00 00 00 
12:40:41:3940 Rx 1 0x182 s 3 00 03 03 
12:40:41:3950 Rx 1 0x184 s 8 83 38 56 40 83 38 56 40 
12:40:41:3950 Rx 1 0x185 s 4 1E 4C 73 40 
12:40:41:3950 Rx 1 0x186 s 8 83 38 56 40 83 38 56 40 
12:40:41:3960 Rx 1 0x188 s 8 06 03 5A FD FC FD 00 00 
12:40:41:3960 Rx 1 0x189 s 4 00 00 00 00 
12:40:41:4200 Rx 1 0x18B s 8 01 40 14 00 0E 00 00 00 
12:40:41:4200 Rx 1 0x18C s 8 EC 31 0C 28 5E FF 82 00 
12:40:41:4210 Rx 1 0x18D s 8 D5 3F A8 04 43 FF 0D 00 
12:40:41:4210 Rx 1 0x18E s 8 37 3B CA E7 1C FE 3B FF 
12:40:41:4860 Rx 1 0x18B s 8 01 40 14 00 0E 00 00 00 
12:40:41:4860 Rx 1 0x18C s 8 EC 31 0C 28 5E FF 82 00 
12:40:41:4870 Rx 1 0x18D s 8 D5 3F A8 04 43 FF 0D 00 
12:40:41:4870 Rx 1 0x18E s 8 37 3B CA E7 1C FE 3B FF 
12:40:41:5520 Rx 1 0x18B s 8 01 40 00 00 0C 00 00 00 
12:40:41:5520 Rx 1 0x18C s 8 E1 31 1A 28 6B FF 78 00 
12:40:41:5530 Rx 1 0x18D s 8 F6 3F 4C 02 4F FF 06 00 
12:40:41:5530 Rx 1 0x18E s 8 43 3A 94 E5 2C FE 2C FF 
12:40:41:5940 Rx 1 0x181 s 7 00 00 00 00 00 00 00 
12:40:41:5940 Rx 1 0x182 s 3 00 A8 02 
12:40:41:5950 Rx 1 0x184 s 8 25 DA 39 40 25 DA 39 40 
12:40:41:5950 Rx 1 0x185 s 4 32 86 6C 40 
12:40:41:5950 Rx 1 0x186 s 8 25 DA 39 40 25 DA 39 40 
12:40:41:5960 Rx 1 0x188 s 8 07 03 FF FC FB FD 00 00 
12:40:41:5960 Rx 1 0x189 s 4 00 00 00 00 
12:40:41:6180 Rx 1 0x18B s 8 01 40 0C 00 FF FF 00 00 
12:40:41:6180 Rx 1 0x18C s 8 DC 31 21 28 70 FF 74 00 
12:40:41:6190 Rx 1 0x18D s 8 00 40 58 FF 55 FF FF FF 
12:40:41:6190 Rx 1 0x18E s 8 F8 38 E6 E2 34 FE 15 FF 
12:40:41:6840 Rx 1 0x18B s 8 01 40 0C 00 FF FF 00 00 
12:40:41:6840 Rx 1 0x18C s 8 DC 31 21 28 70 FF 74 00 
12:40:41:6850 Rx 1 0x18D s 8 00 40 58 FF 55 FF FF FF 
12:40:41:6850 Rx 1 0x18E s 8 F8 38 E6 E2 34 FE 15 FF 
12:40:41:7500 Rx 1 0x18B s 8 01 40 1B 00 14 00 00 00 
12:40:41:7500 Rx 1 0x18C s 8 E6 31 14 28 6F FF 75 00 
12:40:41:7510 Rx 1 0x18D s 8 D7 3F 69 FB 72 FF F6 FF 
12:40:41:7510 Rx 1 0x18E s 8 0E 37 68 DF 71 FE 14 FF 
12:40:41:7940 Rx 1 0x181 s 7 00 00 00 00 00 00 00 
12:40:41:7940 Rx 1 0x182 s 3 00 22 02 
12:40:41:7950 Rx 1 0x184 s 8 C8 BB 16 40 C8 BB 16 40 
12:40:41:7950 Rx 1 0x185 s 4 BE F8 5C 40 
12:40:41:7950 Rx 1 0x186 s 8 C8 BB 16 40 C8 BB 16 40 
12:40:41:7960 Rx 1 0x188 s 8 07 03 79 FC FA FD 00 00 
12:40:41:7960 Rx 1 0x189 s 4 00 00 FF FF 
12:40:41:8160 Rx 1 0x18B s 8 01 40 06 00 02 00 00 00 
12:40:41:8160 Rx 1 0x18C s 8 DB 31 21 28 77 FF 6E 00 
12:40:41:8170 Rx 1 0x18D s 8 88 3F 3B F8 A9 FF F6 FF 
12:40:41:8170 Rx 1 0x18E s 8 6E 35 CC DC AA FE 1F FF 
12:40:41:8820 Rx 1 0x18B s 8 01 40 06 00 02 00 00 00 
12:40:41:8820 Rx 1 0x18C s 8 DB 31 21 28 77 FF 6E 00 
12:40:41:8830 Rx 1 0x18D s 8 88 3F 3B F8 A9 FF F6 FF 
12:40:41:8830 Rx 1 0x18E s 8 6E 35 CC DC AA FE 1F FF 
12:40:41:9480 Rx 1 0x18B s 8 01 40 17 00 0A 00 00 00 
12:40:41:9480 Rx 1 0x18C s 8 D5 31 2A 28 75 FF 70 00 
12:40:41:9490 Rx 1 0x18D s 8 5F 3F 03 F7 C4 FF F8 FF 
12:40:41:9490 Rx 1 0x18E s 8 C3 34 CC DB CD FE 2D FF 
12:40:41:9940 Rx 1 0x181 s 7 00 00 00 00 00 00 00 
12:40:41:9940 Rx 1 0x182 s 3 00 FA 01 
12:40:41:9950 Rx 1 0x184 s 8 3C B1 02 40 3C B1 02 40 
12:40:41:9950 Rx 1 0x185 s 4 62 A4 4E 40 
12:40:41:9950 Rx 1 0x186 s 8 3C B1 02 40 3C B1 02 40 
12:40:41:9960 Rx 1 0x188 s 8 07 03 55 FC F6 FD 00 00 
12:40:41:9960 Rx 1 0x189 s 4 00 00 02 00 
12:40:42:0140 Rx 1 0x18B s 8 01 40 17 00 0A 00 00 00 
12:40:42:0140 Rx 1 0x18C s 8 D5 31 2A 28 75 FF 70 00 
12:40:42:0150 Rx 1 0x18D s 8 5F 3F 03 F7 C4 FF F8 FF 
12:40:42:0150 Rx 1 0x18E s 8 C3 34 CC DB CD FE 2D FF 
12:40:42:0800 Rx 1 0x18B s 8 01 40 EF FF 1C 00 00 00 
12:40:42:0800 Rx 1 0x18C s 8 D8 31 26 28 7C FF 6A 00 
12:40:42:0810 Rx 1 0x18D s 8 6A 3F 50 F7 C2 FF F8 FF 
12:40:42:0810 Rx 1 0x18E s 8 A6 33 3B DA B9 FE 11 FF 
12:40:42:1460 Rx 1 0x18B s 8 01 40 F7 FF 0D 00 00 00 
12:40:42:1460 Rx 1 0x18C s 8 F1 31 08 28 A1 FF 4C 00 
12:40:42:1470 Rx 1 0x18D s 8 68 3F 42 F7 F4 FF FF FF 
12:40:42:1470 Rx 1 0x18E s 8 96 31 8C D7 19 FF 44 FF 
12:40:42:1940 Rx 1 0x181 s 7 00 00 00 00 00 00 00 
12:40:42:1940 Rx 1 0x182 s 3 00 62 01 
12:40:42:1950 Rx 1 0x184 s 8 C9 ED FD 3F C9 ED FD 3F 
12:40:42:1950 Rx 1 0x185 s 4 85 BB 42 40 
12:40:42:1950 Rx 1 0x186 s 8 C9 ED FD 3F C9 ED FD 3F 
12:40:42:1960 Rx 1 0x188 s 8 09 03 66 FC 4F FD 00 00 
12:40:42:1960 Rx 1 0x189 s 4 FE FF 00 00 
12:40:42:2120 Rx 1 0x18B s 8 01 40 F7 FF 0D 00 00 00 
12:40:42:2120 Rx 1 0x18C s 8 F1 31 08 28 A1 FF 4C 00 
12:40:42:2130 Rx 1 0x18D s 8 68 3F 42 F7 F4 FF FF FF 
12:40:42:2130 Rx 1 0x18E s 8 96 31 8C D7 19 FF 44 FF 
12:40:42:2780 Rx 1 0x18B s 8 01 40 F6 FF 02 00 00 00 
12:40:42:2780 Rx 1 0x18C s 8 EC 31 0E 28 AD FF 42 00 
12:40:42:2790 Rx 1 0x18D s 8 80 3F F8 F7 FF FF 00 00 
12:40:42:2790 Rx 1 0x18E s 8 24 2E A6 D3 55 FF 5C FF 
12:40:42:3440 Rx 1 0x18B s 8 01 40 F7 FF 0D 00 00 00 
12:40:42:3440 Rx 1 0x18C s 8 E6 31 15 28 92 FF 58 00 
12:40:42:3450 Rx 1 0x18D s 8 97 3F B6 F8 CB FF FA FF 
12:40:42:3450 Rx 1 0x18E s 8 54 29 23 CF 68 FF 4C FF 
12:40:42:3940 Rx 1 0x181 s 7 00 00 00 00 00 00 00 
12:40:42:3940 Rx 1 0x182 s 3 00 8B 00 
12:40:42:3950 Rx 1 0x184 s 8 3C E1 02 40 3C E1 02 40 
12:40:42:3950 Rx 1 0x185 s 4 4C 4B 24 40 
12:40:42:3950 Rx 1 0x186 s 8 3C E1 02 40 3C E1 02 40 
12:40:42:3960 Rx 1 0x188 s 8 07 03 74 FC 68 FC 00 00 
12:40:42:3960 Rx 1 0x189 s 4 01 00 01 00 
12:40:42:4100 Rx 1 0x18B s 8 01 40 F7 FF 0D 00 00 00 
12:40:42:4100 Rx 1 0x18C s 8 E6 31 15 28 92 FF 58 00 
12:40:42:4110 Rx 1 0x18D s 8 97 3F B6 F8 CB FF FA FF 
12:40:42:4110 Rx 1 0x18E s 8 54 29 23 CF 68 FF 4C FF 
12:40:42:4760 Rx 1 0x18B s 8 01 40 FB FF 14 00 00 00 
12:40:42:4760 Rx 1 0x18C s 8 D9 31 25 28 7E FF 68 00 
12:40:42:4770 Rx 1 0x18D s 8 8F 3F 77 F8 AF FF F7 FF 
12:40:42:4770 Rx 1 0x18E s 8 39 25 F1 CB 77 FF 40 FF 
12:40:42:5420 Rx 1 0x18B s 8 01 40 2C 00 32 00 00 00 
12:40:42:5420 Rx 1 0x18C s 8 DC 31 20 28 80 FF 67 00 
12:40:42:5430 Rx 1 0x18D s 8 7E 3F E7 F7 B8 FF F7 FF 
12:40:42:5430 Rx 1 0x18E s 8 8F 22 22 CA 8E FF 4E FF 
12:40:42:5940 Rx 1 0x181 s 7 00 00 00 00 00 00 00 
12:40:42:5940 Rx 1 0x182 s 3 00 18 00 
12:40:42:5950 Rx 1 0x184 s 8 E4 5D 06 40 E4 5D 06 40 
12:40:42:5950 Rx 1 0x185 s 4 1C B4 0D 40 
12:40:42:5950 Rx 1 0x186 s 8 E4 5D 06 40 E4 5D 06 40 
12:40:42:5960 Rx 1 0x188 s 8 08 03 5A FC 0E FC 00 00 
12:40:42:5960 Rx 1 0x189 s 4 01 00 01 00 
12:40:42:6080 Rx 1 0x18B s 8 01 40 2C 00 32 00 00 00 
12:40:42:6080 Rx 1 0x18C s 8 DC 31 20 28 80 FF 67 00 
12:40:42:6090 Rx 1 0x18D s 8 7E 3F E7 F7 B8 FF F7 FF 
12:40:42:6090 Rx 1 0x18E s 8 8F 22 22 CA 8E FF 4E FF 
12:40:42:6740 Rx 1 0x18B s 8 01 40 1C 00 35 00 00 00 
12:40:42:6740 Rx 1 0x18C s 8 D1 31 2E 28 84 FF 64 00 
12:40:42:6750 Rx 1 0x18D s 8 59 3F DC F6 F2 FF FE FF 
12:40:42:6750 Rx 1 0x18E s 8 4B 20 BE C8 BC FF 8C FF 
12:40:42:7400 Rx 1 0x18B s 8 01 40 0F 00 09 00 00 00 
12:40:42:7400 Rx 1 0x18C s 8 D6 31 29 28 9D FF 50 00 
12:40:42:7410 Rx 1 0x18D s 8 3E 3F 28 F6 1E 00 04 00 
12:40:42:7410 Rx 1 0x18E s 8 3E E1 21 38 2F 00 56 00 
12:40:42:7940 Rx 1 0x181 s 7 00 00 00 00 00 00 00 
12:40:42:7940 Rx 1 0x182 s 3 00 D4 FF 
12:40:42:7950 Rx 1 0x184 s 8 34 E6 05 40 34 E6 05 40 
12:40:42:7950 Rx 1 0x185 s 4 E8 3B 01 40 
12:40:42:7950 Rx 1 0x186 s 8 34 E6 05 40 34 E6 05 40 
12:40:42:7960 Rx 1 0x188 s 8 09 03 32 FC F1 FB 00 00 
12:40:42:7960 Rx 1 0x189 s 4 00 00 01 00 
12:40:42:8060 Rx 1 0x18B s 8 01 40 0F 00 09 00 00 00 
12:40:42:8060 Rx 1 0x18C s 8 D6 31 29 28 9D FF 50 00 
12:40:42:8070 Rx 1 0x18D s 8 3E 3F 28 F6 1E 00 04 00 
12:40:42:8070 Rx 1 0x18E s 8 3E E1 21 38 2F 00 56 00 
12:40:42:8720 Rx 1 0x18B s 8 01 40 06 00 24 00 00 00 
12:40:42:8720 Rx 1 0x18C s 8 D8 31 26 28 87 FF 61 00 
12:40:42:8730 Rx 1 0x18D s 8 EB 3E 40 F4 F8 FF FF FF 
12:40:42:8730 Rx 1 0x18E s 8 E9 E2 03 39 35 00 69 00 
12:40:42:9380 Rx 1 0x18B s 8 01 40 0E 00 09 00 00 00 
12:40:42:9380 Rx 1 0x18C s 8 F3 31 04 28 70 FF 73 00 
12:40:42:9390 Rx 1 0x18D s 8 5F 3E A2 F1 E5 FF FA FF 
12:40:42:9390 Rx 1 0x18E s 8 05 E2 8C 38 3E 00 75 00 
12:40:42:9940 Rx 1 0x181 s 7 00 00 00 00 00 00 00 
12:40:42:9940 Rx 1 0x182 s 3 00 F4 FF 
12:40:42:9950 Rx 1 0x184 s 8 C1 8A EF 3F C1 8A EF 3F 
12:40:42:9950 Rx 1 0x185 s 4 0C 3A F5 3F 
12:40:42:9950 Rx 1 0x186 s 8 C1 8A EF 3F C1 8A EF 3F 
12:40:42:9960 Rx 1 0x188 s 8 03 03 D7 FB 71 FC 00 00 
12:40:42:9960 Rx 1 0x189 s 4 01 00 01 00 
12:40:43:0040 Rx 1 0x18B s 8 01 40 0E 00 09 00 00 00 
12:40:43:0040 Rx 1 0x18C s 8 F3 31 04 28 70 FF 73 00 
12:40:43:0050 Rx 1 0x18D s 8 5F 3E A2 F1 E5 FF FA FF 
12:40:43:0050 Rx 1 0x18E s 8 05 E2 8C 38 3E 00 75 00 
12:40:43:0700 Rx 1 0x18B s 8 01 40 1D 00 1B 00 00 00 
12:40:43:0700 Rx 1 0x18C s 8 0A 32 E6 27 43 FF 96 00 
12:40:43:0710 Rx 1 0x18D s 8 DE 3D 98 EF B5 FF ED FF 
12:40:43:0710 Rx 1 0x18E s 8 06 E1 01 38 5E 00 AB 00 
12:40:43:1360 Rx 1 0x18B s 8 01 40 2F 00 05 00 00 00 
12:40:43:1360 Rx 1 0x18C s 8 32 32 B2 27 11 FF BD 00 
12:40:43:1370 Rx 1 0x18D s 8 B0 3D EF EE 81 FF DD FF 
12:40:43:1370 Rx 1 0x18E s 8 AA E1 5A 38 78 00 DF 00 
12:40:43:1940 Rx 1 0x181 s 7 00 00 00 00 00 00 00 
12:40:43:1940 Rx 1 0x182 s 3 00 D9 FF 
12:40:43:1950 Rx 1 0x184 s 8 CC BC DB 3F CC BC DB 3F 
12:40:43:1950 Rx 1 0x185 s 4 18 C3 F3 3F 
