***BUSMASTER Ver 3.2.2***
***PROTOCOL CAN***
***NOTE: PLEASE DO NOT EDIT THIS DOCUMENT***
***[START LOGGING SESSION]***
***START DATE AND TIME 23:1:2019 16:21:29:587***
***HEX***
***SYSTEM MODE***
***START CHANNEL BAUD RATE***
***CHANNEL 1 - Kvaser - Kvaser Leaf Light v2 #0 (Channel 0), Serial Number- 0, Firmware- 0x00000187 0x00040004 - 250000 bps***
***END CHANNEL BAUD RATE***
***START DATABASE FILES***
***END DATABASE FILES***
***<Time><Tx/Rx><Channel><CAN ID><Type><DLC><DataBytes>***
16:21:32:6459 Rx 1 0x18D s 8 2B 37 8C DF 17 00 0D 00 
16:21:32:6469 Rx 1 0x18E s 8 89 E8 8C 3B 21 00 55 00 
16:21:32:6469 Rx 1 0x18E s 8 8B E8 8D 3B 20 00 52 00 
16:21:32:6469 Rx 1 0x18E s 8 89 E8 8C 3B 21 00 55 00 
16:21:32:6679 Rx 1 0x18B s 8 01 40 32 00 3E 00 00 00 
16:21:32:6689 Rx 1 0x18C s 8 4B 39 88 1C FD FF 01 00 
16:21:32:6689 Rx 1 0x18D s 8 2C 37 8D DF 16 00 0D 00 
16:21:32:6689 Rx 1 0x18E s 8 84 E8 8A 3B 22 00 57 00 
16:21:32:6699 Rx 1 0x181 s 7 00 00 00 00 00 00 00 
16:21:32:6699 Rx 1 0x184 s 8 EC E4 21 40 EC E4 21 40 
16:21:32:6709 Rx 1 0x185 s 4 1D E3 2A 40 
16:21:32:6709 Rx 1 0x186 s 8 EC E4 21 40 EC E4 21 40 
16:21:32:6719 Rx 1 0x188 s 8 0D 02 8D FB 3F F9 00 00 
16:21:32:6719 Rx 1 0x189 s 4 03 00 04 00 
16:21:32:7339 Rx 1 0x18B s 8 01 40 3D 00 45 00 00 00 
16:21:32:7349 Rx 1 0x18C s 8 4D 39 84 1C FD FF 01 00 
16:21:32:7349 Rx 1 0x18D s 8 24 37 80 DF 21 00 14 00 
16:21:32:7349 Rx 1 0x18E s 8 80 E8 89 3B 24 00 5B 00 
16:21:32:7729 Rx 1 0x182 s 3 01 53 FB 
16:21:32:7999 Rx 1 0x18B s 8 01 40 3D 00 45 00 00 00 
16:21:32:7999 Rx 1 0x18C s 8 4D 39 84 1C FD FF 01 00 
16:21:32:8009 Rx 1 0x18D s 8 24 37 80 DF 21 00 14 00 
16:21:32:8009 Rx 1 0x18E s 8 80 E8 89 3B 24 00 5B 00 
16:21:32:8659 Rx 1 0x18B s 8 01 40 3B 00 3A 00 00 00 
16:21:32:8669 Rx 1 0x18C s 8 48 39 8E 1C F1 FF 07 00 
16:21:32:8669 Rx 1 0x18D s 8 25 37 82 DF 1F 00 12 00 
16:21:32:8669 Rx 1 0x18E s 8 7B E8 87 3B 25 00 5D 00 
16:21:32:8699 Rx 1 0x181 s 7 00 00 00 00 00 00 00 
16:21:32:8699 Rx 1 0x184 s 8 86 E5 21 40 86 E5 21 40 
16:21:32:8709 Rx 1 0x185 s 4 BE 7E 2A 40 
16:21:32:8709 Rx 1 0x186 s 8 86 E5 21 40 86 E5 21 40 
16:21:32:8719 Rx 1 0x188 s 8 0D 02 8D FB 3F F9 00 00 
16:21:32:8719 Rx 1 0x189 s 4 04 00 03 00 
16:21:32:9319 Rx 1 0x18B s 8 01 40 3B 00 3A 00 00 00 
16:21:32:9319 Rx 1 0x18C s 8 48 39 8E 1C F1 FF 07 00 
16:21:32:9329 Rx 1 0x18D s 8 25 37 82 DF 1F 00 12 00 
16:21:32:9329 Rx 1 0x18E s 8 7B E8 87 3B 25 00 5D 00 
16:21:32:9729 Rx 1 0x182 s 3 01 54 FB 
16:21:32:9979 Rx 1 0x18B s 8 01 40 3B 00 30 00 00 00 
16:21:32:9989 Rx 1 0x18C s 8 4B 39 88 1C F2 FF 07 00 
16:21:32:9989 Rx 1 0x18D s 8 27 37 85 DF 1D 00 11 00 
16:21:32:9989 Rx 1 0x18E s 8 79 E8 86 3B 25 00 5E 00 
16:21:33:0639 Rx 1 0x18B s 8 01 40 34 00 3B 00 00 00 
16:21:33:0639 Rx 1 0x18C s 8 4D 39 84 1C F3 FF 06 00 
16:21:33:0649 Rx 1 0x18D s 8 28 37 86 DF 1A 00 0F 00 
16:21:33:0649 Rx 1 0x18E s 8 8E E8 8E 3B 23 00 59 00 
16:21:33:0699 Rx 1 0x181 s 7 00 00 00 00 00 00 00 
16:21:33:0699 Rx 1 0x184 s 8 F6 D0 21 40 F6 D0 21 40 
16:21:33:0709 Rx 1 0x185 s 4 7E 00 2B 40 
16:21:33:0709 Rx 1 0x186 s 8 F6 D0 21 40 F6 D0 21 40 
16:21:33:0719 Rx 1 0x188 s 8 0D 02 8E FB 3E F9 00 00 
16:21:33:0719 Rx 1 0x189 s 4 03 00 03 00 
16:21:33:1299 Rx 1 0x18B s 8 01 40 34 00 3B 00 00 00 
16:21:33:1309 Rx 1 0x18C s 8 4D 39 84 1C F3 FF 06 00 
16:21:33:1309 Rx 1 0x18D s 8 28 37 86 DF 1A 00 0F 00 
16:21:33:1309 Rx 1 0x18E s 8 8E E8 8E 3B 23 00 59 00 
16:21:33:1729 Rx 1 0x182 s 3 01 53 FB 
16:21:33:1959 Rx 1 0x18B s 8 01 40 31 00 30 00 00 00 
16:21:33:1969 Rx 1 0x18C s 8 46 39 92 1C FC FF 02 00 
16:21:33:1969 Rx 1 0x18D s 8 29 37 88 DF 17 00 0E 00 
16:21:33:1969 Rx 1 0x18E s 8 89 E8 8C 3B 24 00 5D 00 
16:21:33:2619 Rx 1 0x18B s 8 01 40 39 00 3C 00 00 00 
16:21:33:2629 Rx 1 0x18C s 8 49 39 8C 1C FD FF 01 00 
16:21:33:2629 Rx 1 0x18D s 8 2A 37 8B DF 18 00 0E 00 
16:21:33:2629 Rx 1 0x18E s 8 85 E8 8B 3B 26 00 61 00 
16:21:33:2699 Rx 1 0x181 s 7 00 00 00 00 00 00 00 
16:21:33:2699 Rx 1 0x184 s 8 FA F9 21 40 FA F9 21 40 
16:21:33:2709 Rx 1 0x185 s 4 98 C2 2A 40 
16:21:33:2709 Rx 1 0x186 s 8 FA F9 21 40 FA F9 21 40 
16:21:33:2719 Rx 1 0x188 s 8 0D 02 8D FB 3E F9 00 00 
16:21:33:2719 Rx 1 0x189 s 4 03 00 04 00 
16:21:33:3279 Rx 1 0x18B s 8 01 40 39 00 3C 00 00 00 
16:21:33:3289 Rx 1 0x18C s 8 49 39 8C 1C FD FF 01 00 
16:21:33:3289 Rx 1 0x18D s 8 2A 37 8B DF 18 00 0E 00 
16:21:33:3289 Rx 1 0x18E s 8 85 E8 8B 3B 26 00 61 00 
16:21:33:3729 Rx 1 0x182 s 3 01 52 FB 
16:21:33:3939 Rx 1 0x18B s 8 01 40 37 00 32 00 00 00 
16:21:33:3939 Rx 1 0x18C s 8 4C 39 87 1C FE FF 01 00 
16:21:33:3949 Rx 1 0x18D s 8 2B 37 8C DF 16 00 0D 00 
16:21:33:3949 Rx 1 0x18E s 8 80 E8 89 3B 26 00 61 00 
16:21:33:4599 Rx 1 0x18B s 8 01 40 34 00 3D 00 00 00 
16:21:33:4609 Rx 1 0x18C s 8 4D 39 84 1C FE FF 01 00 
16:21:33:4609 Rx 1 0x18D s 8 22 37 7E DF 24 00 15 00 
16:21:33:4609 Rx 1 0x18E s 8 89 E8 8C 3B 21 00 55 00 
16:21:33:4699 Rx 1 0x181 s 7 00 00 00 00 00 00 00 
16:21:33:4699 Rx 1 0x184 s 8 94 B9 21 40 94 B9 21 40 
16:21:33:4709 Rx 1 0x185 s 4 B1 D1 2A 40 
16:21:33:4709 Rx 1 0x186 s 8 94 B9 21 40 94 B9 21 40 
16:21:33:4719 Rx 1 0x188 s 8 0E 02 8C FB 3F F9 00 00 
16:21:33:4719 Rx 1 0x189 s 4 03 00 04 00 
16:21:33:5259 Rx 1 0x18B s 8 01 40 34 00 3D 00 00 00 
16:21:33:5259 Rx 1 0x18C s 8 4D 39 84 1C FE FF 01 00 
16:21:33:5269 Rx 1 0x18D s 8 22 37 7E DF 24 00 15 00 
16:21:33:5269 Rx 1 0x18E s 8 89 E8 8C 3B 21 00 55 00 
16:21:33:5729 Rx 1 0x182 s 3 01 53 FB 
16:21:33:5919 Rx 1 0x18B s 8 01 40 32 00 32 00 00 00 
16:21:33:5929 Rx 1 0x18C s 8 4B 39 89 1C F1 FF 07 00 
16:21:33:5929 Rx 1 0x18D s 8 25 37 83 DF 24 00 15 00 
16:21:33:5929 Rx 1 0x18E s 8 86 E8 8B 3B 22 00 56 00 
16:21:33:6579 Rx 1 0x18B s 8 01 40 3E 00 3E 00 00 00 
16:21:33:6579 Rx 1 0x18C s 8 4D 39 85 1C F1 FF 07 00 
16:21:33:6589 Rx 1 0x18D s 8 27 37 85 DF 24 00 15 00 
16:21:33:6589 Rx 1 0x18E s 8 82 E8 89 3B 22 00 57 00 
16:21:33:6699 Rx 1 0x181 s 7 00 00 00 00 00 00 00 
16:21:33:6699 Rx 1 0x184 s 8 2A C5 21 40 2A C5 21 40 
16:21:33:6709 Rx 1 0x185 s 4 F7 D6 2A 40 
16:21:33:6709 Rx 1 0x186 s 8 2A C5 21 40 2A C5 21 40 
16:21:33:6719 Rx 1 0x188 s 8 0E 02 8C FB 3E F9 00 00 
16:21:33:6719 Rx 1 0x189 s 4 04 00 04 00 
16:21:33:7239 Rx 1 0x18B s 8 01 40 3E 00 3E 00 00 00 
16:21:33:7249 Rx 1 0x18C s 8 4D 39 85 1C F1 FF 07 00 
16:21:33:7249 Rx 1 0x18D s 8 27 37 85 DF 24 00 15 00 
16:21:33:7249 Rx 1 0x18E s 8 82 E8 89 3B 22 00 57 00 
16:21:33:7729 Rx 1 0x182 s 3 01 53 FB 
16:21:33:7899 Rx 1 0x18B s 8 01 40 3C 00 33 00 00 00 
16:21:33:7909 Rx 1 0x18C s 8 45 39 94 1C F9 FF 03 00 
16:21:33:7909 Rx 1 0x18D s 8 28 37 88 DF 22 00 14 00 
16:21:33:7909 Rx 1 0x18E s 8 7E E8 88 3B 23 00 59 00 
16:21:33:8559 Rx 1 0x18B s 8 01 40 3C 00 41 00 00 00 
16:21:33:8559 Rx 1 0x18C s 8 48 39 8E 1C F9 FF 03 00 
16:21:33:8569 Rx 1 0x18D s 8 2A 37 8A DF 20 00 13 00 
16:21:33:8569 Rx 1 0x18E s 8 79 E8 86 3B 24 00 5B 00 
16:21:33:8699 Rx 1 0x181 s 7 00 00 00 00 00 00 00 
16:21:33:8699 Rx 1 0x184 s 8 89 EF 21 40 89 EF 21 40 
16:21:33:8709 Rx 1 0x185 s 4 1A 96 2A 40 
16:21:33:8709 Rx 1 0x186 s 8 89 EF 21 40 89 EF 21 40 
16:21:33:8719 Rx 1 0x188 s 8 0D 02 8D FB 3F F9 00 00 
16:21:33:8719 Rx 1 0x189 s 4 04 00 04 00 
16:21:33:9219 Rx 1 0x18B s 8 01 40 3C 00 41 00 00 00 
16:21:33:9229 Rx 1 0x18C s 8 48 39 8E 1C F9 FF 03 00 
16:21:33:9229 Rx 1 0x18D s 8 2A 37 8A DF 20 00 13 00 
16:21:33:9229 Rx 1 0x18E s 8 79 E8 86 3B 24 00 5B 00 
16:21:33:9729 Rx 1 0x182 s 3 01 52 FB 
16:21:33:9879 Rx 1 0x18B s 8 01 40 3B 00 35 00 00 00 
16:21:33:9879 Rx 1 0x18C s 8 4C 39 88 1C F8 FF 04 00 
16:21:33:9889 Rx 1 0x18D s 8 2B 37 8D DF 1F 00 12 00 
16:21:33:9889 Rx 1 0x18E s 8 74 E8 84 3B 25 00 5E 00 
16:21:34:0539 Rx 1 0x18B s 8 01 40 33 00 3F 00 00 00 
16:21:34:0549 Rx 1 0x18C s 8 4D 39 85 1C F8 FF 04 00 
16:21:34:0549 Rx 1 0x18D s 8 2C 37 8E DF 1E 00 12 00 
16:21:34:0549 Rx 1 0x18E s 8 8B E8 8D 3B 24 00 5D 00 
16:21:34:0699 Rx 1 0x181 s 7 00 00 00 00 00 00 00 
16:21:34:0699 Rx 1 0x184 s 8 1A DE 21 40 1A DE 21 40 
16:21:34:0709 Rx 1 0x185 s 4 B7 0D 2B 40 
16:21:34:0709 Rx 1 0x186 s 8 1A DE 21 40 1A DE 21 40 
16:21:34:0719 Rx 1 0x188 s 8 0D 02 8E FB 3D F9 00 00 
16:21:34:0719 Rx 1 0x189 s 4 03 00 04 00 
16:21:34:1199 Rx 1 0x18B s 8 01 40 33 00 3F 00 00 00 
16:21:34:1199 Rx 1 0x18C s 8 4D 39 85 1C F8 FF 04 00 
16:21:34:1209 Rx 1 0x18D s 8 2C 37 8E DF 1E 00 12 00 
16:21:34:1209 Rx 1 0x18E s 8 8B E8 8D 3B 24 00 5D 00 
16:21:34:1729 Rx 1 0x182 s 3 01 53 FB 
16:21:34:1859 Rx 1 0x18B s 8 01 40 33 00 33 00 00 00 
16:21:34:1869 Rx 1 0x18C s 8 4F 39 81 1C F8 FF 03 00 
16:21:34:1869 Rx 1 0x18D s 8 2C 37 8F DF 1E 00 12 00 
16:21:34:1869 Rx 1 0x18E s 8 86 E8 8B 3B 20 00 52 00 
16:21:34:2519 Rx 1 0x18B s 8 01 40 3D 00 3F 00 00 00 
16:21:34:2529 Rx 1 0x18C s 8 50 39 7E 1C F9 FF 03 00 
16:21:34:2529 Rx 1 0x18D s 8 2D 37 90 DF 1E 00 11 00 
16:21:34:2529 Rx 1 0x18E s 8 82 E8 89 3B 21 00 55 00 
16:21:34:2699 Rx 1 0x181 s 7 00 00 00 00 00 00 00 
16:21:34:2699 Rx 1 0x184 s 8 A4 B7 21 40 A4 B7 21 40 
16:21:34:2709 Rx 1 0x185 s 4 80 2B 2B 40 
16:21:34:2709 Rx 1 0x186 s 8 A4 B7 21 40 A4 B7 21 40 
16:21:34:2719 Rx 1 0x188 s 8 0C 02 8F FB 3D F9 00 00 
16:21:34:2719 Rx 1 0x189 s 4 04 00 04 00 
16:21:34:3179 Rx 1 0x18B s 8 01 40 3D 00 3F 00 00 00 
16:21:34:3189 Rx 1 0x18C s 8 50 39 7E 1C F9 FF 03 00 
16:21:34:3189 Rx 1 0x18D s 8 2D 37 90 DF 1E 00 11 00 
16:21:34:3189 Rx 1 0x18E s 8 82 E8 89 3B 21 00 55 00 
16:21:34:3729 Rx 1 0x182 s 3 01 52 FB 
16:21:34:3839 Rx 1 0x18B s 8 01 40 3B 00 33 00 00 00 
16:21:34:3849 Rx 1 0x18C s 8 45 39 94 1C F5 FF 05 00 
16:21:34:3849 Rx 1 0x18D s 8 20 37 7A DF 1A 00 0F 00 
16:21:34:3849 Rx 1 0x18E s 8 8C E8 8E 3B 22 00 57 00 
16:21:34:4499 Rx 1 0x18B s 8 01 40 37 00 42 00 00 00 
16:21:34:4499 Rx 1 0x18C s 8 48 39 8E 1C F5 FF 05 00 
16:21:34:4509 Rx 1 0x18D s 8 24 37 80 DF 19 00 0E 00 
16:21:34:4509 Rx 1 0x18E s 8 87 E8 8C 3B 22 00 58 00 
16:21:34:4699 Rx 1 0x181 s 7 00 00 00 00 00 00 00 
16:21:34:4699 Rx 1 0x184 s 8 88 EC 21 40 88 EC 21 40 
16:21:34:4709 Rx 1 0x185 s 4 F3 92 2A 40 
16:21:34:4709 Rx 1 0x186 s 8 88 EC 21 40 88 EC 21 40 
16:21:34:4719 Rx 1 0x188 s 8 0D 02 8C FB 3F F9 00 00 
16:21:34:4719 Rx 1 0x189 s 4 03 00 04 00 
16:21:34:5159 Rx 1 0x18B s 8 01 40 37 00 42 00 00 00 
16:21:34:5169 Rx 1 0x18C s 8 48 39 8E 1C F5 FF 05 00 
16:21:34:5169 Rx 1 0x18D s 8 24 37 80 DF 19 00 0E 00 
16:21:34:5169 Rx 1 0x18E s 8 87 E8 8C 3B 22 00 58 00 
16:21:34:5729 Rx 1 0x182 s 3 01 53 FB 
16:21:34:5819 Rx 1 0x18B s 8 01 40 35 00 37 00 00 00 
16:21:34:5819 Rx 1 0x18C s 8 4C 39 86 1C F6 FF 05 00 
16:21:34:5829 Rx 1 0x18D s 8 25 37 82 DF 17 00 0E 00 
16:21:34:5829 Rx 1 0x18E s 8 81 E8 89 3B 23 00 5A 00 
16:21:34:6479 Rx 1 0x18B s 8 01 40 3F 00 43 00 00 00 
16:21:34:6489 Rx 1 0x18C s 8 4E 39 83 1C F5 FF 05 00 
16:21:34:6489 Rx 1 0x18D s 8 27 37 85 DF 17 00 0D 00 
16:21:34:6489 Rx 1 0x18E s 8 8D E8 8E 3B 1F 00 4F 00 
16:21:34:6699 Rx 1 0x181 s 7 00 00 00 00 00 00 00 
16:21:34:6699 Rx 1 0x184 s 8 1F C9 21 40 1F C9 21 40 
16:21:34:6709 Rx 1 0x185 s 4 3B 00 2B 40 
16:21:34:6709 Rx 1 0x186 s 8 1F C9 21 40 1F C9 21 40 
16:21:34:6719 Rx 1 0x188 s 8 0C 02 8E FB 3E F9 00 00 
16:21:34:6719 Rx 1 0x189 s 4 04 00 04 00 
16:21:34:7139 Rx 1 0x18B s 8 01 40 3F 00 43 00 00 00 
16:21:34:7139 Rx 1 0x18C s 8 4E 39 83 1C F5 FF 05 00 
16:21:34:7149 Rx 1 0x18D s 8 27 37 85 DF 17 00 0D 00 
16:21:34:7149 Rx 1 0x18E s 8 8D E8 8E 3B 1F 00 4F 00 
16:21:34:7729 Rx 1 0x182 s 3 01 53 FB 
16:21:34:7799 Rx 1 0x18B s 8 01 40 40 00 38 00 00 00 
16:21:34:7809 Rx 1 0x18C s 8 4F 39 80 1C F6 FF 05 00 
16:21:34:7809 Rx 1 0x18D s 8 27 37 85 DF 18 00 0E 00 
16:21:34:7809 Rx 1 0x18E s 8 84 E8 8A 3B 25 00 5F 00 
16:21:34:8459 Rx 1 0x18B s 8 01 40 2C 00 3D 00 00 00 
16:21:34:8469 Rx 1 0x18C s 8 51 39 7C 1C F5 FF 05 00 
16:21:34:8469 Rx 1 0x18D s 8 28 37 87 DF 16 00 0D 00 
16:21:34:8469 Rx 1 0x18E s 8 80 E8 89 3B 26 00 60 00 
16:21:34:8699 Rx 1 0x181 s 7 00 00 00 00 00 00 00 
16:21:34:8699 Rx 1 0x184 s 8 B0 8D 21 40 B0 8D 21 40 
16:21:34:8709 Rx 1 0x185 s 4 08 18 2B 40 
16:21:34:8709 Rx 1 0x186 s 8 B0 8D 21 40 B0 8D 21 40 
16:21:34:8719 Rx 1 0x188 s 8 0C 02 8E FB 3F F9 00 00 
16:21:34:8719 Rx 1 0x189 s 4 04 00 04 00 
16:21:34:9119 Rx 1 0x18B s 8 01 40 2C 00 3D 00 00 00 
16:21:34:9119 Rx 1 0x18C s 8 51 39 7C 1C F5 FF 05 00 
16:21:34:9129 Rx 1 0x18D s 8 28 37 87 DF 16 00 0D 00 
16:21:34:9129 Rx 1 0x18E s 8 80 E8 89 3B 26 00 60 00 
16:21:34:9729 Rx 1 0x182 s 3 01 52 FB 
16:21:34:9779 Rx 1 0x18B s 8 01 40 3B 00 39 00 00 00 
16:21:34:9789 Rx 1 0x18C s 8 48 39 8E 1C 00 00 00 00 
16:21:34:9789 Rx 1 0x18D s 8 25 37 82 DF 24 00 15 00 
16:21:34:9789 Rx 1 0x18E s 8 90 E8 8F 3B 21 00 56 00 
16:21:35:0439 Rx 1 0x18B s 8 01 40 35 00 43 00 00 00 
16:21:35:0439 Rx 1 0x18C s 8 48 39 8E 1C F0 FF 08 00 
16:21:35:0449 Rx 1 0x18D s 8 27 37 85 DF 21 00 13 00 
16:21:35:0449 Rx 1 0x18E s 8 8A E8 8D 3B 22 00 57 00 
16:21:35:0699 Rx 1 0x181 s 7 00 00 00 00 00 00 00 
16:21:35:0699 Rx 1 0x184 s 8 B9 FC 21 40 B9 FC 21 40 
16:21:35:0709 Rx 1 0x185 s 4 54 A9 2A 40 
16:21:35:0709 Rx 1 0x186 s 8 B9 FC 21 40 B9 FC 21 40 
16:21:35:0719 Rx 1 0x188 s 8 0E 02 8D FB 3E F9 00 00 
16:21:35:0719 Rx 1 0x189 s 4 03 00 04 00 
16:21:35:1099 Rx 1 0x18B s 8 01 40 35 00 43 00 00 00 
16:21:35:1109 Rx 1 0x18C s 8 48 39 8E 1C F0 FF 08 00 
16:21:35:1109 Rx 1 0x18D s 8 27 37 85 DF 21 00 13 00 
16:21:35:1109 Rx 1 0x18E s 8 8A E8 8D 3B 22 00 57 00 
16:21:35:1729 Rx 1 0x182 s 3 01 53 FB 
16:21:35:1759 Rx 1 0x18B s 8 01 40 33 00 38 00 00 00 
16:21:35:1759 Rx 1 0x18C s 8 4B 39 8A 1C F0 FF 08 00 
16:21:35:1769 Rx 1 0x18D s 8 28 37 87 DF 1E 00 12 00 
16:21:35:1769 Rx 1 0x18E s 8 84 E8 8A 3B 22 00 58 00 
16:21:35:2419 Rx 1 0x18B s 8 01 40 32 00 2E 00 00 00 
16:21:35:2429 Rx 1 0x18C s 8 4E 39 83 1C EF FF 08 00 
16:21:35:2429 Rx 1 0x18D s 8 29 37 89 DF 1D 00 11 00 
16:21:35:2429 Rx 1 0x18E s 8 80 E8 89 3B 23 00 5A 00 
16:21:35:2699 Rx 1 0x181 s 7 00 00 00 00 00 00 00 
16:21:35:2699 Rx 1 0x184 s 8 AB BD 21 40 AB BD 21 40 
16:21:35:2709 Rx 1 0x185 s 4 6E F3 2A 40 
16:21:35:2709 Rx 1 0x186 s 8 AB BD 21 40 AB BD 21 40 
16:21:35:2719 Rx 1 0x188 s 8 0D 02 8E FB 3E F9 00 00 
16:21:35:2719 Rx 1 0x189 s 4 03 00 02 00 
16:21:35:3079 Rx 1 0x18B s 8 01 40 32 00 2E 00 00 00 
16:21:35:3089 Rx 1 0x18C s 8 4E 39 83 1C EF FF 08 00 
16:21:35:3089 Rx 1 0x18D s 8 29 37 89 DF 1D 00 11 00 
16:21:35:3089 Rx 1 0x18E s 8 80 E8 89 3B 23 00 5A 00 
16:21:35:3729 Rx 1 0x182 s 3 01 54 FB 
16:21:35:3739 Rx 1 0x18B s 8 01 40 34 00 3F 00 00 00 
16:21:35:3739 Rx 1 0x18C s 8 49 39 8D 1C FE FF 01 00 
16:21:35:3749 Rx 1 0x18D s 8 2A 37 8A DF 1B 00 0F 00 
16:21:35:3749 Rx 1 0x18E s 8 7D E8 87 3B 23 00 5A 00 
16:21:35:4399 Rx 1 0x18B s 8 01 40 40 00 44 00 00 00 
16:21:35:4409 Rx 1 0x18C s 8 4B 39 89 1C FF FF 00 00 
16:21:35:4409 Rx 1 0x18D s 8 2A 37 8B DF 1B 00 0F 00 
16:21:35:4409 Rx 1 0x18E s 8 92 E8 90 3B 22 00 57 00 
16:21:35:4699 Rx 1 0x181 s 7 00 00 00 00 00 00 00 
16:21:35:4699 Rx 1 0x184 s 8 B3 FD 21 40 B3 FD 21 40 
16:21:35:4709 Rx 1 0x185 s 4 CD F2 2A 40 
16:21:35:4709 Rx 1 0x186 s 8 B3 FD 21 40 B3 FD 21 40 
16:21:35:4719 Rx 1 0x188 s 8 0C 02 8D FB 3E F9 00 00 
16:21:35:4719 Rx 1 0x189 s 4 04 00 04 00 
16:21:35:5059 Rx 1 0x18B s 8 01 40 40 00 44 00 00 00 
16:21:35:5059 Rx 1 0x18C s 8 4B 39 89 1C FF FF 00 00 
16:21:35:5069 Rx 1 0x18D s 8 2A 37 8B DF 1B 00 0F 00 
16:21:35:5069 Rx 1 0x18E s 8 92 E8 90 3B 22 00 57 00 
16:21:35:5719 Rx 1 0x18B s 8 01 40 3E 00 38 00 00 00 
16:21:35:5729 Rx 1 0x18C s 8 4D 39 84 1C FE FF 01 00 
16:21:35:5729 Rx 1 0x18D s 8 24 37 80 DF 25 00 16 00 
16:21:35:5729 Rx 1 0x182 s 3 01 52 FB 
16:21:35:5739 Rx 1 0x18E s 8 8D E8 8E 3B 22 00 58 00 
16:21:35:6379 Rx 1 0x18B s 8 01 40 36 00 43 00 00 00 
16:21:35:6379 Rx 1 0x18C s 8 44 39 96 1C FF FF 00 00 
16:21:35:6389 Rx 1 0x18D s 8 24 37 81 DF 16 00 0D 00 
16:21:35:6389 Rx 1 0x18E s 8 89 E8 8C 3B 24 00 5C 00 
16:21:35:6699 Rx 1 0x181 s 7 00 00 00 00 00 00 00 
16:21:35:6699 Rx 1 0x184 s 8 34 1A 22 40 34 1A 22 40 
16:21:35:6709 Rx 1 0x185 s 4 90 65 2A 40 
16:21:35:6709 Rx 1 0x186 s 8 34 1A 22 40 34 1A 22 40 
16:21:35:6719 Rx 1 0x188 s 8 0E 02 8C FB 3F F9 00 00 
16:21:35:6719 Rx 1 0x189 s 4 03 00 04 00 
16:21:35:7039 Rx 1 0x18B s 8 01 40 36 00 43 00 00 00 
16:21:35:7049 Rx 1 0x18C s 8 44 39 96 1C FF FF 00 00 
16:21:35:7049 Rx 1 0x18D s 8 24 37 81 DF 16 00 0D 00 
16:21:35:7049 Rx 1 0x18E s 8 89 E8 8C 3B 24 00 5C 00 
16:21:35:7699 Rx 1 0x18B s 8 01 40 35 00 38 00 00 00 
16:21:35:7699 Rx 1 0x18C s 8 47 39 91 1C FE FF 01 00 
16:21:35:7709 Rx 1 0x18D s 8 24 37 80 DF 21 00 13 00 
16:21:35:7709 Rx 1 0x18E s 8 83 E8 8A 3B 25 00 5E 00 
16:21:35:7729 Rx 1 0x182 s 3 01 53 FB 
16:21:35:8359 Rx 1 0x18B s 8 01 40 34 00 2C 00 00 00 
16:21:35:8369 Rx 1 0x18C s 8 4A 39 8C 1C 00 00 00 00 
16:21:35:8369 Rx 1 0x18D s 8 24 37 80 DF 1F 00 12 00 
16:21:35:8369 Rx 1 0x18E s 8 7E E8 88 3B 25 00 60 00 
16:21:35:8699 Rx 1 0x181 s 7 00 00 00 00 00 00 00 
16:21:35:8699 Rx 1 0x184 s 8 25 DA 21 40 25 DA 21 40 
16:21:35:8709 Rx 1 0x185 s 4 A0 91 2A 40 
16:21:35:8709 Rx 1 0x186 s 8 25 DA 21 40 25 DA 21 40 
16:21:35:8719 Rx 1 0x188 s 8 0D 02 8D FB 3F F9 00 00 
16:21:35:8719 Rx 1 0x189 s 4 04 00 04 00 
16:21:35:9019 Rx 1 0x18B s 8 01 40 34 00 2C 00 00 00 
16:21:35:9029 Rx 1 0x18C s 8 4A 39 8C 1C 00 00 00 00 
16:21:35:9029 Rx 1 0x18D s 8 24 37 80 DF 1F 00 12 00 
16:21:35:9029 Rx 1 0x18E s 8 7E E8 88 3B 25 00 60 00 
16:21:35:9679 Rx 1 0x18B s 8 01 40 37 00 3B 00 00 00 
16:21:35:9679 Rx 1 0x18C s 8 4A 39 8B 1C F1 FF 07 00 
16:21:35:9689 Rx 1 0x18D s 8 25 37 82 DF 1F 00 12 00 
16:21:35:9689 Rx 1 0x18E s 8 7A E8 86 3B 27 00 63 00 
16:21:35:9729 Rx 1 0x182 s 3 01 54 FB 
16:21:36:0339 Rx 1 0x18B s 8 01 40 33 00 30 00 00 00 
16:21:36:0349 Rx 1 0x18C s 8 4B 39 88 1C F2 FF 07 00 
16:21:36:0349 Rx 1 0x18D s 8 26 37 84 DF 1D 00 11 00 
16:21:36:0349 Rx 1 0x18E s 8 8C E8 8D 3B 21 00 54 00 
16:21:36:0699 Rx 1 0x181 s 7 00 00 00 00 00 00 00 
16:21:36:0699 Rx 1 0x184 s 8 18 E3 21 40 18 E3 21 40 
16:21:36:0709 Rx 1 0x185 s 4 F5 D3 2A 40 
16:21:36:0709 Rx 1 0x186 s 8 18 E3 21 40 18 E3 21 40 
16:21:36:0719 Rx 1 0x188 s 8 0D 02 8D FB 3E F9 00 00 
16:21:36:0719 Rx 1 0x189 s 4 03 00 03 00 
16:21:36:0999 Rx 1 0x18B s 8 01 40 33 00 30 00 00 00 
16:21:36:0999 Rx 1 0x18C s 8 4B 39 88 1C F2 FF 07 00 
16:21:36:1009 Rx 1 0x18D s 8 26 37 84 DF 1D 00 11 00 
16:21:36:1009 Rx 1 0x18E s 8 8C E8 8D 3B 21 00 54 00 
16:21:36:1659 Rx 1 0x18B s 8 01 40 37 00 40 00 00 00 
16:21:36:1669 Rx 1 0x18C s 8 4D 39 85 1C F1 FF 07 00 
16:21:36:1669 Rx 1 0x18D s 8 27 37 85 DF 1C 00 10 00 
16:21:36:1669 Rx 1 0x18E s 8 87 E8 8B 3B 22 00 57 00 
16:21:36:1729 Rx 1 0x182 s 3 01 53 FB 
16:21:36:2319 Rx 1 0x18B s 8 01 40 37 00 40 00 00 00 
16:21:36:2319 Rx 1 0x18C s 8 4D 39 85 1C F1 FF 07 00 
16:21:36:2329 Rx 1 0x18D s 8 27 37 85 DF 1C 00 10 00 
16:21:36:2329 Rx 1 0x18E s 8 87 E8 8B 3B 22 00 57 00 
16:21:36:2699 Rx 1 0x181 s 7 00 00 00 00 00 00 00 
16:21:36:2699 Rx 1 0x184 s 8 3C E9 21 40 3C E9 21 40 
16:21:36:2709 Rx 1 0x185 s 4 AF AB 2A 40 
16:21:36:2709 Rx 1 0x186 s 8 3C E9 21 40 3C E9 21 40 
16:21:36:2719 Rx 1 0x188 s 8 0D 02 8D FB 3E F9 00 00 
16:21:36:2719 Rx 1 0x189 s 4 03 00 03 00 
16:21:36:2979 Rx 1 0x18B s 8 01 40 35 00 34 00 00 00 
16:21:36:2989 Rx 1 0x18C s 8 49 39 8C 1C 00 00 00 00 
16:21:36:2989 Rx 1 0x18D s 8 27 37 86 DF 1A 00 0F 00 
16:21:36:2989 Rx 1 0x18E s 8 82 E8 89 3B 22 00 58 00 
16:21:36:3639 Rx 1 0x18B s 8 01 40 34 00 43 00 00 00 
16:21:36:3649 Rx 1 0x18C s 8 49 39 8D 1C F4 FF 06 00 
16:21:36:3649 Rx 1 0x18D s 8 29 37 88 DF 1A 00 0F 00 
16:21:36:3649 Rx 1 0x18E s 8 7D E8 88 3B 23 00 59 00 
16:21:36:3729 Rx 1 0x182 s 3 01 53 FB 
16:21:36:4299 Rx 1 0x18B s 8 01 40 34 00 43 00 00 00 
16:21:36:4299 Rx 1 0x18C s 8 49 39 8D 1C F4 FF 06 00 
16:21:36:4309 Rx 1 0x18D s 8 29 37 88 DF 1A 00 0F 00 
16:21:36:4309 Rx 1 0x18E s 8 7D E8 88 3B 23 00 59 00 
16:21:36:4699 Rx 1 0x181 s 7 00 00 00 00 00 00 00 
16:21:36:4699 Rx 1 0x184 s 8 AC CA 21 40 AC CA 21 40 
16:21:36:4709 Rx 1 0x185 s 4 17 BA 2A 40 
16:21:36:4709 Rx 1 0x186 s 8 AC CA 21 40 AC CA 21 40 
16:21:36:4719 Rx 1 0x188 s 8 0D 02 8E FB 3D F9 00 00 
16:21:36:4719 Rx 1 0x189 s 4 03 00 03 00 
16:21:36:4959 Rx 1 0x18B s 8 01 40 33 00 38 00 00 00 
16:21:36:4969 Rx 1 0x18C s 8 4B 39 88 1C F4 FF 06 00 
16:21:36:4969 Rx 1 0x18D s 8 29 37 89 DF 19 00 0E 00 
16:21:36:4969 Rx 1 0x18E s 8 78 E8 86 3B 24 00 5B 00 
16:21:36:5619 Rx 1 0x18B s 8 01 40 3B 00 44 00 00 00 
16:21:36:5619 Rx 1 0x18C s 8 4C 39 86 1C F4 FF 06 00 
16:21:36:5629 Rx 1 0x18D s 8 24 37 81 DF 26 00 16 00 
16:21:36:5629 Rx 1 0x18E s 8 8C E8 8E 3B 24 00 5C 00 
16:21:36:5729 Rx 1 0x182 s 3 01 52 FB 
16:21:36:6279 Rx 1 0x18B s 8 01 40 3B 00 44 00 00 00 
16:21:36:6289 Rx 1 0x18C s 8 4C 39 86 1C F4 FF 06 00 
16:21:36:6289 Rx 1 0x18D s 8 24 37 81 DF 26 00 16 00 
16:21:36:6289 Rx 1 0x18E s 8 8C E8 8E 3B 24 00 5C 00 
16:21:36:6699 Rx 1 0x181 s 7 00 00 00 00 00 00 00 
16:21:36:6699 Rx 1 0x184 s 8 C8 B4 21 40 C8 B4 21 40 
16:21:36:6709 Rx 1 0x185 s 4 3B E6 2A 40 
16:21:36:6709 Rx 1 0x186 s 8 C8 B4 21 40 C8 B4 21 40 
16:21:36:6719 Rx 1 0x188 s 8 0D 02 8D FB 3F F9 00 00 
16:21:36:6719 Rx 1 0x189 s 4 03 00 03 00 
16:21:36:6939 Rx 1 0x18B s 8 01 40 37 00 39 00 00 00 
16:21:36:6939 Rx 1 0x18C s 8 4E 39 82 1C F5 FF 05 00 
16:21:36:6949 Rx 1 0x18D s 8 24 37 81 DF 16 00 0D 00 
16:21:36:6949 Rx 1 0x18E s 8 87 E8 8B 3B 24 00 5D 00 
16:21:36:7599 Rx 1 0x18B s 8 01 40 32 00 2F 00 00 00 
16:21:36:7609 Rx 1 0x18C s 8 46 39 92 1C FF FF 00 00 
16:21:36:7609 Rx 1 0x18D s 8 23 37 7E DF 20 00 13 00 
16:21:36:7609 Rx 1 0x18E s 8 83 E8 8A 3B 25 00 5F 00 
16:21:36:7729 Rx 1 0x182 s 3 01 53 FB 
16:21:36:8259 Rx 1 0x18B s 8 01 40 32 00 2F 00 00 00 
16:21:36:8259 Rx 1 0x18C s 8 46 39 92 1C FF FF 00 00 
16:21:36:8269 Rx 1 0x18D s 8 23 37 7E DF 20 00 13 00 
16:21:36:8269 Rx 1 0x18E s 8 83 E8 8A 3B 25 00 5F 00 
16:21:36:8699 Rx 1 0x181 s 7 00 00 00 00 00 00 00 
16:21:36:8699 Rx 1 0x184 s 8 BF D9 21 40 BF D9 21 40 
16:21:36:8709 Rx 1 0x185 s 4 D2 93 2A 40 
16:21:36:8709 Rx 1 0x186 s 8 BF D9 21 40 BF D9 21 40 
16:21:36:8719 Rx 1 0x188 s 8 0E 02 8D FB 3F F9 00 00 
16:21:36:8719 Rx 1 0x189 s 4 03 00 04 00 
16:21:36:8919 Rx 1 0x18B s 8 01 40 36 00 3E 00 00 00 
16:21:36:8929 Rx 1 0x18C s 8 49 39 8C 1C FE FF 01 00 
16:21:36:8929 Rx 1 0x18D s 8 25 37 83 DF 1E 00 11 00 
16:21:36:8929 Rx 1 0x18E s 8 7D E8 87 3B 26 00 62 00 
16:21:36:9579 Rx 1 0x18B s 8 01 40 31 00 33 00 00 00 
16:21:36:9589 Rx 1 0x18C s 8 4C 39 86 1C FD FF 01 00 
16:21:36:9589 Rx 1 0x18D s 8 26 37 83 DF 1D 00 11 00 
16:21:36:9589 Rx 1 0x18E s 8 88 E8 8C 3B 21 00 55 00 
16:21:36:9729 Rx 1 0x182 s 3 01 53 FB 
16:21:37:0239 Rx 1 0x18B s 8 01 40 31 00 33 00 00 00 
16:21:37:0239 Rx 1 0x18C s 8 4C 39 86 1C FD FF 01 00 
16:21:37:0249 Rx 1 0x18D s 8 26 37 83 DF 1D 00 11 00 
16:21:37:0249 Rx 1 0x18E s 8 88 E8 8C 3B 21 00 55 00 
16:21:37:0699 Rx 1 0x181 s 7 00 00 00 00 00 00 00 
16:21:37:0699 Rx 1 0x184 s 8 4C C6 21 40 4C C6 21 40 
16:21:37:0709 Rx 1 0x185 s 4 9A DD 2A 40 
16:21:37:0709 Rx 1 0x186 s 8 4C C6 21 40 4C C6 21 40 
16:21:37:0719 Rx 1 0x188 s 8 0D 02 8D FB 3E F9 00 00 
16:21:37:0719 Rx 1 0x189 s 4 03 00 04 00 
16:21:37:0899 Rx 1 0x18B s 8 01 40 31 00 2B 00 00 00 
16:21:37:0909 Rx 1 0x18C s 8 4D 39 85 1C FE FF 01 00 
16:21:37:0909 Rx 1 0x18D s 8 27 37 85 DF 1B 00 10 00 
16:21:37:0909 Rx 1 0x18E s 8 83 E8 8A 3B 21 00 55 00 
16:21:37:1559 Rx 1 0x18B s 8 01 40 35 00 3D 00 00 00 
16:21:37:1559 Rx 1 0x18C s 8 4E 39 83 1C FE FF 01 00 
16:21:37:1569 Rx 1 0x18D s 8 27 37 86 DF 1A 00 0F 00 
16:21:37:1569 Rx 1 0x18E s 8 7F E8 88 3B 22 00 57 00 
16:21:37:1729 Rx 1 0x182 s 3 01 53 FB 
16:21:37:2219 Rx 1 0x18B s 8 01 40 35 00 3D 00 00 00 
16:21:37:2229 Rx 1 0x18C s 8 4E 39 83 1C FE FF 01 00 
16:21:37:2229 Rx 1 0x18D s 8 27 37 86 DF 1A 00 0F 00 
16:21:37:2229 Rx 1 0x18E s 8 7F E8 88 3B 22 00 57 00 
16:21:37:2699 Rx 1 0x181 s 7 00 00 00 00 00 00 00 
16:21:37:2699 Rx 1 0x184 s 8 4D A6 21 40 4D A6 21 40 
16:21:37:2709 Rx 1 0x185 s 4 24 F9 2A 40 
16:21:37:2709 Rx 1 0x186 s 8 4D A6 21 40 4D A6 21 40 
16:21:37:2719 Rx 1 0x188 s 8 0D 02 8D FB 3F F9 00 00 
16:21:37:2719 Rx 1 0x189 s 4 03 00 03 00 
16:21:37:2879 Rx 1 0x18B s 8 01 40 33 00 31 00 00 00 
16:21:37:2879 Rx 1 0x18C s 8 4F 39 80 1C FF FF 00 00 
16:21:37:2889 Rx 1 0x18D s 8 28 37 88 DF 1A 00 0F 00 
16:21:37:2889 Rx 1 0x18E s 8 7C E8 87 3B 23 00 5A 00 
16:21:37:3539 Rx 1 0x18B s 8 01 40 3A 00 42 00 00 00 
16:21:37:3549 Rx 1 0x18C s 8 49 39 8D 1C F3 FF 06 00 
16:21:37:3549 Rx 1 0x18D s 8 24 37 81 DF 18 00 0E 00 
16:21:37:3549 Rx 1 0x18E s 8 76 E8 85 3B 24 00 5C 00 
16:21:37:3729 Rx 1 0x182 s 3 01 52 FB 
16:21:37:4199 Rx 1 0x18B s 8 01 40 3A 00 42 00 00 00 
16:21:37:4209 Rx 1 0x18C s 8 49 39 8D 1C F3 FF 06 00 
16:21:37:4209 Rx 1 0x18D s 8 24 37 81 DF 18 00 0E 00 
16:21:37:4209 Rx 1 0x18E s 8 76 E8 85 3B 24 00 5C 00 
16:21:37:4699 Rx 1 0x181 s 7 00 00 00 00 00 00 00 
16:21:37:4699 Rx 1 0x184 s 8 BF CC 21 40 BF CC 21 40 
16:21:37:4709 Rx 1 0x185 s 4 27 CD 2A 40 
16:21:37:4709 Rx 1 0x186 s 8 BF CC 21 40 BF CC 21 40 
16:21:37:4719 Rx 1 0x188 s 8 0E 02 8C FB 3E F9 00 00 
16:21:37:4719 Rx 1 0x189 s 4 04 00 03 00 
16:21:37:4859 Rx 1 0x18B s 8 01 40 39 00 36 00 00 00 
16:21:37:4859 Rx 1 0x18C s 8 4C 39 86 1C F3 FF 06 00 
16:21:37:4869 Rx 1 0x18D s 8 22 37 7D DF 23 00 14 00 
16:21:37:4869 Rx 1 0x18E s 8 8D E8 8E 3B 23 00 5A 00 
16:21:37:5519 Rx 1 0x18B s 8 01 40 37 00 44 00 00 00 
16:21:37:5529 Rx 1 0x18C s 8 47 39 90 1C FD FF 01 00 
16:21:37:5529 Rx 1 0x18D s 8 24 37 81 DF 22 00 14 00 
16:21:37:5529 Rx 1 0x18E s 8 89 E8 8C 3B 24 00 5B 00 
16:21:37:5729 Rx 1 0x182 s 3 01 53 FB 
16:21:37:6179 Rx 1 0x18B s 8 01 40 37 00 44 00 00 00 
16:21:37:6179 Rx 1 0x18C s 8 47 39 90 1C FD FF 01 00 
16:21:37:6189 Rx 1 0x18D s 8 24 37 81 DF 22 00 14 00 
16:21:37:6189 Rx 1 0x18E s 8 89 E8 8C 3B 24 00 5B 00 
16:21:37:6699 Rx 1 0x181 s 7 00 00 00 00 00 00 00 
16:21:37:6699 Rx 1 0x184 s 8 3C DB 21 40 3C DB 21 40 
16:21:37:6709 Rx 1 0x185 s 4 30 AE 2A 40 
16:21:37:6709 Rx 1 0x186 s 8 3C DB 21 40 3C DB 21 40 
16:21:37:6719 Rx 1 0x188 s 8 0D 02 8D FB 3F F9 00 00 
16:21:37:6719 Rx 1 0x189 s 4 03 00 03 00 
16:21:37:6839 Rx 1 0x18B s 8 01 40 34 00 3B 00 00 00 
16:21:37:6849 Rx 1 0x18C s 8 4A 39 8A 1C FE FF 01 00 
16:21:37:6849 Rx 1 0x18D s 8 25 37 83 DF 23 00 14 00 
16:21:37:6849 Rx 1 0x18E s 8 83 E8 8A 3B 24 00 5D 00 
16:21:37:7499 Rx 1 0x18B s 8 01 40 33 00 30 00 00 00 
16:21:37:7499 Rx 1 0x18C s 8 4C 39 87 1C FE FF 01 00 
16:21:37:7509 Rx 1 0x18D s 8 26 37 84 DF 20 00 13 00 
16:21:37:7509 Rx 1 0x18E s 8 7F E8 88 3B 25 00 5E 00 
16:21:37:7729 Rx 1 0x182 s 3 01 53 FB 
16:21:37:8159 Rx 1 0x18B s 8 01 40 33 00 30 00 00 00 
16:21:37:8169 Rx 1 0x18C s 8 4C 39 87 1C FE FF 01 00 
16:21:37:8169 Rx 1 0x18D s 8 26 37 84 DF 20 00 13 00 
16:21:37:8169 Rx 1 0x18E s 8 7F E8 88 3B 25 00 5E 00 
16:21:37:8699 Rx 1 0x181 s 7 00 00 00 00 00 00 00 
16:21:37:8699 Rx 1 0x184 s 8 2E B8 21 40 2E B8 21 40 
16:21:37:8709 Rx 1 0x185 s 4 60 DC 2A 40 
16:21:37:8709 Rx 1 0x186 s 8 2E B8 21 40 2E B8 21 40 
16:21:37:8719 Rx 1 0x188 s 8 0E 02 8D FB 3D F9 00 00 
16:21:37:8719 Rx 1 0x189 s 4 03 00 04 00 
16:21:37:8819 Rx 1 0x18B s 8 01 40 37 00 3F 00 00 00 
16:21:37:8819 Rx 1 0x18C s 8 4D 39 84 1C FE FF 01 00 
16:21:37:8829 Rx 1 0x18D s 8 28 37 87 DF 1F 00 12 00 
16:21:37:8829 Rx 1 0x18E s 8 7D E8 87 3B 26 00 61 00 
16:21:37:9479 Rx 1 0x18B s 8 01 40 35 00 34 00 00 00 
16:21:37:9479 Rx 1 0x18C s 8 4B 39 89 1C F1 FF 07 00 
16:21:37:9489 Rx 1 0x18D s 8 29 37 8A DF 1F 00 12 00 
16:21:37:9489 Rx 1 0x18E s 8 8E E8 8E 3B 21 00 54 00 
16:21:37:9729 Rx 1 0x182 s 3 01 52 FB 
16:21:38:0139 Rx 1 0x18B s 8 01 40 35 00 34 00 00 00 
16:21:38:0149 Rx 1 0x18C s 8 4B 39 89 1C F1 FF 07 00 
16:21:38:0149 Rx 1 0x18D s 8 29 37 8A DF 1F 00 12 00 
16:21:38:0149 Rx 1 0x18E s 8 8E E8 8E 3B 21 00 54 00 
16:21:38:0699 Rx 1 0x181 s 7 00 00 00 00 00 00 00 
16:21:38:0699 Rx 1 0x184 s 8 C1 DA 21 40 C1 DA 21 40 
16:21:38:0709 Rx 1 0x185 s 4 60 F9 2A 40 
16:21:38:0709 Rx 1 0x186 s 8 C1 DA 21 40 C1 DA 21 40 
16:21:38:0719 Rx 1 0x188 s 8 0D 02 8E FB 3D F9 00 00 
16:21:38:0719 Rx 1 0x189 s 4 03 00 04 00 
16:21:38:0799 Rx 1 0x18B s 8 01 40 37 00 46 00 00 00 
16:21:38:0799 Rx 1 0x18C s 8 4C 39 86 1C F2 FF 06 00 
16:21:38:0809 Rx 1 0x18D s 8 2A 37 8B DF 1C 00 10 00 
16:21:38:0809 Rx 1 0x18E s 8 8A E8 8D 3B 22 00 57 00 
16:21:38:1459 Rx 1 0x18B s 8 01 40 34 00 3B 00 00 00 
16:21:38:1469 Rx 1 0x18C s 8 47 39 91 1C 00 00 00 00 
16:21:38:1469 Rx 1 0x18D s 8 2B 37 8C DF 1A 00 0F 00 
16:21:38:1469 Rx 1 0x18E s 8 86 E8 8B 3B 23 00 59 00 
16:21:38:1729 Rx 1 0x182 s 3 01 53 FB 
16:21:38:2119 Rx 1 0x18B s 8 01 40 34 00 3B 00 00 00 
16:21:38:2119 Rx 1 0x18C s 8 47 39 91 1C 00 00 00 00 
16:21:38:2129 Rx 1 0x18D s 8 2B 37 8C DF 1A 00 0F 00 
16:21:38:2129 Rx 1 0x18E s 8 86 E8 8B 3B 23 00 59 00 
16:21:38:2699 Rx 1 0x181 s 7 00 00 00 00 00 00 00 
16:21:38:2699 Rx 1 0x184 s 8 09 07 22 40 09 07 22 40 
16:21:38:2709 Rx 1 0x185 s 4 AC B4 2A 40 
16:21:38:2709 Rx 1 0x186 s 8 09 07 22 40 09 07 22 40 
16:21:38:2719 Rx 1 0x188 s 8 0E 02 8E FB 3E F9 00 00 
16:21:38:2719 Rx 1 0x189 s 4 03 00 03 00 
16:21:38:2779 Rx 1 0x18B s 8 01 40 32 00 30 00 00 00 
16:21:38:2789 Rx 1 0x18C s 8 48 39 8F 1C F3 FF 06 00 
16:21:38:2789 Rx 1 0x18D s 8 2C 37 8E DF 1A 00 0F 00 
16:21:38:2789 Rx 1 0x18E s 8 81 E8 89 3B 23 00 5A 00 
16:21:38:3439 Rx 1 0x18B s 8 01 40 34 00 3F 00 00 00 
16:21:38:3439 Rx 1 0x18C s 8 4C 39 88 1C F4 FF 06 00 
16:21:38:3449 Rx 1 0x18D s 8 2D 37 8F DF 18 00 0E 00 
16:21:38:3449 Rx 1 0x18E s 8 7E E8 88 3B 24 00 5B 00 
16:21:38:3729 Rx 1 0x182 s 3 01 53 FB 
16:21:38:4099 Rx 1 0x18B s 8 01 40 34 00 3F 00 00 00 
16:21:38:4099 Rx 1 0x18C s 8 4C 39 88 1C F4 FF 06 00 
16:21:38:4109 Rx 1 0x18D s 8 2D 37 8F DF 18 00 0E 00 
16:21:38:4109 Rx 1 0x18E s 8 7E E8 88 3B 24 00 5B 00 
16:21:38:4699 Rx 1 0x181 s 7 00 00 00 00 00 00 00 
16:21:38:4699 Rx 1 0x184 s 8 94 A6 21 40 94 A6 21 40 
16:21:38:4709 Rx 1 0x185 s 4 3D BC 2A 40 
16:21:38:4709 Rx 1 0x186 s 8 94 A6 21 40 94 A6 21 40 
16:21:38:4719 Rx 1 0x188 s 8 0D 02 8D FB 3F F9 00 00 
16:21:38:4719 Rx 1 0x189 s 4 03 00 03 00 
16:21:38:4759 Rx 1 0x18B s 8 01 40 30 00 33 00 00 00 
16:21:38:4769 Rx 1 0x18C s 8 4D 39 84 1C F4 FF 06 00 
16:21:38:4769 Rx 1 0x18D s 8 24 37 80 DF 25 00 15 00 
16:21:38:4769 Rx 1 0x18E s 8 7A E8 86 3B 25 00 5E 00 
16:21:38:5419 Rx 1 0x18B s 8 01 40 3A 00 43 00 00 00 
16:21:38:5419 Rx 1 0x18C s 8 4F 39 81 1C F6 FF 05 00 
16:21:38:5429 Rx 1 0x18D s 8 26 37 83 DF 15 00 0C 00 
16:21:38:5429 Rx 1 0x18E s 8 75 E8 84 3B 25 00 5F 00 
16:21:38:5729 Rx 1 0x182 s 3 01 52 FB 
16:21:38:6079 Rx 1 0x18B s 8 01 40 3A 00 43 00 00 00 
16:21:38:6089 Rx 1 0x18C s 8 4F 39 81 1C F6 FF 05 00 
16:21:38:6089 Rx 1 0x18D s 8 26 37 83 DF 15 00 0C 00 
16:21:38:6089 Rx 1 0x18E s 8 75 E8 84 3B 25 00 5F 00 
16:21:38:6699 Rx 1 0x181 s 7 00 00 00 00 00 00 00 
16:21:38:6699 Rx 1 0x184 s 8 D7 AB 21 40 D7 AB 21 40 
16:21:38:6709 Rx 1 0x185 s 4 B4 1D 2B 40 
16:21:38:6709 Rx 1 0x186 s 8 D7 AB 21 40 D7 AB 21 40 
16:21:38:6719 Rx 1 0x188 s 8 0C 02 8D FB 3F F9 00 00 
16:21:38:6719 Rx 1 0x189 s 4 03 00 03 00 
16:21:38:6739 Rx 1 0x18B s 8 01 40 38 00 37 00 00 00 
16:21:38:6739 Rx 1 0x18C s 8 51 39 7E 1C F7 FF 04 00 
16:21:38:6749 Rx 1 0x18D s 8 26 37 84 DF 13 00 0B 00 
16:21:38:6749 Rx 1 0x18E s 8 8D E8 8E 3B 23 00 59 00 
16:21:38:7399 Rx 1 0x18B s 8 01 40 40 00 47 00 00 00 
16:21:38:7409 Rx 1 0x18C s 8 45 39 94 1C F7 FF 04 00 
16:21:38:7409 Rx 1 0x18D s 8 22 37 7E DF 1F 00 12 00 
16:21:38:7409 Rx 1 0x18E s 8 89 E8 8C 3B 24 00 5D 00 
16:21:38:7729 Rx 1 0x182 s 3 01 53 FB 
16:21:38:8059 Rx 1 0x18B s 8 01 40 40 00 47 00 00 00 
16:21:38:8059 Rx 1 0x18C s 8 45 39 94 1C F7 FF 04 00 
16:21:38:8069 Rx 1 0x18D s 8 22 37 7E DF 1F 00 12 00 
16:21:38:8069 Rx 1 0x18E s 8 89 E8 8C 3B 24 00 5D 00 
16:21:38:8699 Rx 1 0x181 s 7 00 00 00 00 00 00 00 
16:21:38:8699 Rx 1 0x184 s 8 D8 EB 21 40 D8 EB 21 40 
16:21:38:8709 Rx 1 0x185 s 4 92 8F 2A 40 
16:21:38:8709 Rx 1 0x186 s 8 D8 EB 21 40 D8 EB 21 40 
16:21:38:8719 Rx 1 0x188 s 8 0D 02 8D FB 3F F9 00 00 
16:21:38:8719 Rx 1 0x189 s 4 04 00 03 00 
16:21:38:8729 Rx 1 0x18B s 8 01 40 3D 00 3A 00 00 00 
16:21:38:8729 Rx 1 0x18C s 8 49 39 8E 1C F7 FF 04 00 
16:21:38:8729 Rx 1 0x18D s 8 24 37 80 DF 1D 00 11 00 
16:21:38:8739 Rx 1 0x18E s 8 83 E8 8A 3B 24 00 5D 00 
16:21:38:9379 Rx 1 0x18B s 8 01 40 2F 00 42 00 00 00 
16:21:38:9379 Rx 1 0x18C s 8 4C 39 87 1C F8 FF 04 00 
16:21:38:9389 Rx 1 0x18D s 8 26 37 83 DF 1C 00 10 00 
16:21:38:9389 Rx 1 0x18E s 8 7F E8 88 3B 25 00 5E 00 
16:21:38:9729 Rx 1 0x182 s 3 01 53 FB 
16:21:39:0039 Rx 1 0x18B s 8 01 40 2F 00 42 00 00 00 
16:21:39:0039 Rx 1 0x18C s 8 4C 39 87 1C F8 FF 04 00 
16:21:39:0049 Rx 1 0x18D s 8 26 37 83 DF 1C 00 10 00 
16:21:39:0049 Rx 1 0x18E s 8 7F E8 88 3B 25 00 5E 00 
16:21:39:0699 Rx 1 0x181 s 7 00 00 00 00 00 00 00 
16:21:39:0699 Rx 1 0x184 s 8 FA C3 21 40 FA C3 21 40 
16:21:39:0709 Rx 1 0x185 s 4 B3 03 2B 40 
16:21:39:0709 Rx 1 0x186 s 8 FA C3 21 40 FA C3 21 40 
16:21:39:0719 Rx 1 0x188 s 8 0D 02 8E FB 3E F9 00 00 
16:21:39:0719 Rx 1 0x189 s 4 03 00 03 00 
16:21:39:0729 Rx 1 0x18B s 8 01 40 2C 00 38 00 00 00 
16:21:39:0729 Rx 1 0x18C s 8 4E 39 82 1C F6 FF 04 00 
16:21:39:0729 Rx 1 0x18D s 8 27 37 85 DF 1B 00 10 00 
16:21:39:0739 Rx 1 0x18E s 8 8E E8 8E 3B 1F 00 4F 00 
16:21:39:1359 Rx 1 0x18B s 8 01 40 38 00 3D 00 00 00 
16:21:39:1359 Rx 1 0x18C s 8 50 39 80 1C F7 FF 04 00 
16:21:39:1369 Rx 1 0x18D s 8 28 37 86 DF 1A 00 0F 00 
16:21:39:1369 Rx 1 0x18E s 8 89 E8 8C 3B 20 00 53 00 
16:21:39:1729 Rx 1 0x182 s 3 01 53 FB 
16:21:39:2019 Rx 1 0x18B s 8 01 40 38 00 3D 00 00 00 
16:21:39:2029 Rx 1 0x18C s 8 50 39 80 1C F7 FF 04 00 
16:21:39:2029 Rx 1 0x18D s 8 28 37 86 DF 1A 00 0F 00 
16:21:39:2029 Rx 1 0x18E s 8 89 E8 8C 3B 20 00 53 00 
16:21:39:2679 Rx 1 0x18B s 8 01 40 35 00 32 00 00 00 
16:21:39:2679 Rx 1 0x18C s 8 51 39 7D 1C F7 FF 04 00 
16:21:39:2689 Rx 1 0x18D s 8 25 37 82 DF 24 00 15 00 
16:21:39:2689 Rx 1 0x18E s 8 84 E8 8A 3B 21 00 54 00 
16:21:39:2699 Rx 1 0x181 s 7 00 00 00 00 00 00 00 
16:21:39:2699 Rx 1 0x184 s 8 B8 99 21 40 B8 99 21 40 
16:21:39:2709 Rx 1 0x185 s 4 A5 09 2B 40 
16:21:39:2709 Rx 1 0x186 s 8 B8 99 21 40 B8 99 21 40 
16:21:39:2719 Rx 1 0x188 s 8 0C 02 8E FB 3F F9 00 00 
16:21:39:2719 Rx 1 0x189 s 4 03 00 03 00 
16:21:39:3339 Rx 1 0x18B s 8 01 40 33 00 3F 00 00 00 
16:21:39:3349 Rx 1 0x18C s 8 53 39 79 1C F8 FF 04 00 
16:21:39:3349 Rx 1 0x18D s 8 26 37 84 DF 16 00 0D 00 
16:21:39:3349 Rx 1 0x18E s 8 7F E8 88 3B 22 00 56 00 
16:21:39:3729 Rx 1 0x182 s 3 01 53 FB 
16:21:39:3999 Rx 1 0x18B s 8 01 40 33 00 3F 00 00 00 
16:21:39:3999 Rx 1 0x18C s 8 53 39 79 1C F8 FF 04 00 
16:21:39:4009 Rx 1 0x18D s 8 26 37 84 DF 16 00 0D 00 
16:21:39:4009 Rx 1 0x18E s 8 7F E8 88 3B 22 00 56 00 
16:21:39:4659 Rx 1 0x18B s 8 01 40 32 00 34 00 00 00 
16:21:39:4659 Rx 1 0x18C s 8 46 39 92 1C 01 00 00 00 
16:21:39:4669 Rx 1 0x18D s 8 24 37 80 DF 23 00 14 00 
16:21:39:4669 Rx 1 0x18E s 8 7A E8 86 3B 23 00 58 00 
16:21:39:4699 Rx 1 0x181 s 7 00 00 00 00 00 00 00 
16:21:39:4699 Rx 1 0x184 s 8 30 F1 21 40 30 F1 21 40 
16:21:39:4709 Rx 1 0x185 s 4 4F 58 2A 40 
16:21:39:4709 Rx 1 0x186 s 8 30 F1 21 40 30 F1 21 40 
16:21:39:4719 Rx 1 0x188 s 8 0E 02 8C FB 40 F9 00 00 
16:21:39:4719 Rx 1 0x189 s 4 03 00 03 00 
16:21:39:5319 Rx 1 0x18B s 8 01 40 32 00 34 00 00 00 
16:21:39:5329 Rx 1 0x18C s 8 46 39 92 1C 01 00 00 00 
16:21:39:5329 Rx 1 0x18D s 8 24 37 80 DF 23 00 14 00 
16:21:39:5329 Rx 1 0x18E s 8 7A E8 86 3B 23 00 58 00 
16:21:39:5729 Rx 1 0x182 s 3 01 52 FB 
16:21:39:5979 Rx 1 0x18B s 8 01 40 3D 00 3F 00 00 00 
16:21:39:5979 Rx 1 0x18C s 8 49 39 8D 1C 02 00 FF FF 
16:21:39:5989 Rx 1 0x18D s 8 23 37 7E DF 22 00 14 00 
16:21:39:5989 Rx 1 0x18E s 8 76 E8 85 3B 23 00 58 00 
16:21:39:6639 Rx 1 0x18B s 8 01 40 3C 00 33 00 00 00 
16:21:39:6649 Rx 1 0x18C s 8 4C 39 87 1C 02 00 FF FF 
16:21:39:6649 Rx 1 0x18D s 8 23 37 7F DF 20 00 13 00 
16:21:39:6649 Rx 1 0x18E s 8 8C E8 8D 3B 23 00 5A 00 
16:21:39:6699 Rx 1 0x181 s 7 00 00 00 00 00 00 00 
16:21:39:6699 Rx 1 0x184 s 8 EA D8 21 40 EA D8 21 40 
16:21:39:6709 Rx 1 0x185 s 4 B8 C8 2A 40 
16:21:39:6709 Rx 1 0x186 s 8 EA D8 21 40 EA D8 21 40 
16:21:39:6719 Rx 1 0x188 s 8 0D 02 8C FB 3E F9 00 00 
16:21:39:6719 Rx 1 0x189 s 4 04 00 03 00 
16:21:39:7299 Rx 1 0x18B s 8 01 40 3C 00 33 00 00 00 
16:21:39:7299 Rx 1 0x18C s 8 4C 39 87 1C 02 00 FF FF 
16:21:39:7309 Rx 1 0x18D s 8 23 37 7F DF 20 00 13 00 
16:21:39:7309 Rx 1 0x18E s 8 8C E8 8D 3B 23 00 5A 00 
16:21:39:7729 Rx 1 0x182 s 3 01 53 FB 
16:21:39:7959 Rx 1 0x18B s 8 01 40 30 00 3D 00 00 00 
16:21:39:7969 Rx 1 0x18C s 8 48 39 8E 1C F5 FF 05 00 
16:21:39:7969 Rx 1 0x18D s 8 25 37 82 DF 1E 00 12 00 
16:21:39:7969 Rx 1 0x18E s 8 88 E8 8C 3B 24 00 5D 00 
16:21:39:8619 Rx 1 0x18B s 8 01 40 2D 00 32 00 00 00 
16:21:39:8619 Rx 1 0x18C s 8 4B 39 89 1C F6 FF 05 00 
16:21:39:8629 Rx 1 0x18D s 8 26 37 84 DF 1D 00 11 00 
16:21:39:8629 Rx 1 0x18E s 8 84 E8 8A 3B 26 00 61 00 
16:21:39:8699 Rx 1 0x181 s 7 00 00 00 00 00 00 00 
16:21:39:8699 Rx 1 0x184 s 8 0E D7 21 40 0E D7 21 40 
16:21:39:8709 Rx 1 0x185 s 4 79 BD 2A 40 
16:21:39:8709 Rx 1 0x186 s 8 0E D7 21 40 0E D7 21 40 
16:21:39:8719 Rx 1 0x188 s 8 0D 02 8D FB 3F F9 00 00 
16:21:39:8719 Rx 1 0x189 s 4 04 00 04 00 
16:21:39:9279 Rx 1 0x18B s 8 01 40 2D 00 32 00 00 00 
16:21:39:9279 Rx 1 0x18C s 8 4B 39 89 1C F6 FF 05 00 
16:21:39:9289 Rx 1 0x18D s 8 26 37 84 DF 1D 00 11 00 
16:21:39:9289 Rx 1 0x18E s 8 84 E8 8A 3B 26 00 61 00 
16:21:39:9729 Rx 1 0x182 s 3 01 53 FB 
16:21:39:9939 Rx 1 0x18B s 8 01 40 38 00 3B 00 00 00 
16:21:39:9939 Rx 1 0x18C s 8 4D 39 84 1C F7 FF 04 00 
16:21:39:9949 Rx 1 0x18D s 8 27 37 85 DF 1B 00 10 00 
16:21:39:9949 Rx 1 0x18E s 8 84 E8 8A 3B 20 00 52 00 
16:21:40:0599 Rx 1 0x18B s 8 01 40 38 00 30 00 00 00 
16:21:40:0599 Rx 1 0x18C s 8 4E 39 82 1C F8 FF 04 00 
16:21:40:0609 Rx 1 0x18D s 8 27 37 86 DF 1B 00 10 00 
16:21:40:0609 Rx 1 0x18E s 8 7F E8 88 3B 21 00 55 00 
16:21:40:0699 Rx 1 0x181 s 7 00 00 00 00 00 00 00 
16:21:40:0699 Rx 1 0x184 s 8 98 B3 21 40 98 B3 21 40 
16:21:40:0709 Rx 1 0x185 s 4 84 E7 2A 40 
16:21:40:0709 Rx 1 0x186 s 8 98 B3 21 40 98 B3 21 40 
16:21:40:0719 Rx 1 0x188 s 8 0C 02 8E FB 3F F9 00 00 
16:21:40:0719 Rx 1 0x189 s 4 04 00 05 00 
16:21:40:1259 Rx 1 0x18B s 8 01 40 38 00 30 00 00 00 
16:21:40:1269 Rx 1 0x18C s 8 4E 39 82 1C F8 FF 04 00 
16:21:40:1269 Rx 1 0x18D s 8 27 37 86 DF 1B 00 10 00 
16:21:40:1269 Rx 1 0x18E s 8 7F E8 88 3B 21 00 55 00 
16:21:40:1729 Rx 1 0x182 s 3 01 54 FB 
16:21:40:1919 Rx 1 0x18B s 8 01 40 39 00 40 00 00 00 
16:21:40:1919 Rx 1 0x18C s 8 4F 39 81 1C FA FF 03 00 
16:21:40:1929 Rx 1 0x18D s 8 28 37 87 DF 19 00 0F 00 
16:21:40:1929 Rx 1 0x18E s 8 79 E8 86 3B 22 00 57 00 
16:21:40:2579 Rx 1 0x18B s 8 01 40 38 00 35 00 00 00 
16:21:40:2589 Rx 1 0x18C s 8 50 39 7F 1C FB FF 02 00 
16:21:40:2589 Rx 1 0x18D s 8 29 37 8A DF 19 00 0F 00 
16:21:40:2589 Rx 1 0x18E s 8 76 E8 85 3B 23 00 58 00 
16:21:40:2699 Rx 1 0x181 s 7 00 00 00 00 00 00 00 
16:21:40:2699 Rx 1 0x184 s 8 36 9B 21 40 36 9B 21 40 
16:21:40:2709 Rx 1 0x185 s 4 9A FA 2A 40 
16:21:40:2709 Rx 1 0x186 s 8 36 9B 21 40 36 9B 21 40 
16:21:40:2719 Rx 1 0x188 s 8 0C 02 8E FB 3D F9 00 00 
16:21:40:2719 Rx 1 0x189 s 4 03 00 03 00 
16:21:40:3239 Rx 1 0x18B s 8 01 40 38 00 35 00 00 00 
16:21:40:3239 Rx 1 0x18C s 8 50 39 7F 1C FB FF 02 00 
16:21:40:3249 Rx 1 0x18D s 8 29 37 8A DF 19 00 0F 00 
16:21:40:3249 Rx 1 0x18E s 8 76 E8 85 3B 23 00 58 00 
16:21:40:3729 Rx 1 0x182 s 3 01 53 FB 
16:21:40:3899 Rx 1 0x18B s 8 01 40 32 00 40 00 00 00 
16:21:40:3909 Rx 1 0x18C s 8 52 39 7A 1C F8 FF 04 00 
16:21:40:3909 Rx 1 0x18D s 8 2A 37 8B DF 1A 00 0F 00 
16:21:40:3909 Rx 1 0x18E s 8 84 E8 8A 3B 20 00 53 00 
16:21:40:4559 Rx 1 0x18B s 8 01 40 31 00 36 00 00 00 
16:21:40:4559 Rx 1 0x18C s 8 48 39 8F 1C FC FF 02 00 
16:21:40:4569 Rx 1 0x18D s 8 2C 37 8D DF 19 00 0E 00 
16:21:40:4569 Rx 1 0x18E s 8 7F E8 88 3B 21 00 55 00 
16:21:40:4699 Rx 1 0x181 s 7 00 00 00 00 00 00 00 
16:21:40:4699 Rx 1 0x184 s 8 CB 01 22 40 CB 01 22 40 
16:21:40:4709 Rx 1 0x185 s 4 1A A8 2A 40 
16:21:40:4709 Rx 1 0x186 s 8 CB 01 22 40 CB 01 22 40 
16:21:40:4719 Rx 1 0x188 s 8 0E 02 8D FB 3E F9 00 00 
16:21:40:4719 Rx 1 0x189 s 4 03 00 03 00 
16:21:40:5219 Rx 1 0x18B s 8 01 40 31 00 36 00 00 00 
16:21:40:5219 Rx 1 0x18C s 8 48 39 8F 1C FC FF 02 00 
16:21:40:5229 Rx 1 0x18D s 8 2C 37 8D DF 19 00 0E 00 
16:21:40:5229 Rx 1 0x18E s 8 7F E8 88 3B 21 00 55 00 
16:21:40:5729 Rx 1 0x182 s 3 01 54 FB 
16:21:40:5879 Rx 1 0x18B s 8 01 40 3B 00 3F 00 00 00 
16:21:40:5889 Rx 1 0x18C s 8 4B 39 89 1C FA FF 03 00 
16:21:40:5889 Rx 1 0x18D s 8 24 37 81 DF 19 00 0E 00 
16:21:40:5889 Rx 1 0x18E s 8 7B E8 87 3B 21 00 55 00 
16:21:40:6539 Rx 1 0x18B s 8 01 40 39 00 34 00 00 00 
16:21:40:6539 Rx 1 0x18C s 8 4D 39 84 1C FC FF 02 00 
16:21:40:6549 Rx 1 0x18D s 8 25 37 82 DF 17 00 0E 00 
16:21:40:6549 Rx 1 0x18E s 8 77 E8 85 3B 22 00 57 00 
16:21:40:6699 Rx 1 0x181 s 7 00 00 00 00 00 00 00 
16:21:40:6699 Rx 1 0x184 s 8 C4 A9 21 40 C4 A9 21 40 
16:21:40:6709 Rx 1 0x185 s 4 9D BE 2A 40 
16:21:40:6709 Rx 1 0x186 s 8 C4 A9 21 40 C4 A9 21 40 
16:21:40:6719 Rx 1 0x188 s 8 0D 02 8D FB 3E F9 00 00 
16:21:40:6719 Rx 1 0x189 s 4 03 00 03 00 
16:21:40:7199 Rx 1 0x18B s 8 01 40 39 00 34 00 00 00 
16:21:40:7209 Rx 1 0x18C s 8 4D 39 84 1C FC FF 02 00 
16:21:40:7209 Rx 1 0x18D s 8 25 37 82 DF 17 00 0E 00 
