date Tue Jan 15 1:13:26 pm 2019
base hex  no internal events logged
// version 7.1.0
47606.020200 1 5601065x Rx d 8 E4 16 BC DB 44 2A B1 15 
47606.020200 1 5601066x Rx d 8 DC 28 78 E9 D2 1B D6 21 
47606.021200 1 5601069x Rx d 8 E0 F7 F7 FF 39 00 84 C0 
47606.022200 1 5601067x Rx d 8 68 03 BD D7 C5 FC 77 CE 
47606.025200 1 5601065x Rx d 8 E3 16 BC DB 44 2A B1 15 
47606.025200 1 5601066x Rx d 8 DB 28 78 E9 D2 1B D6 21 
47606.026200 1 5601069x Rx d 8 DF F7 F7 FF 38 00 84 C0 
47606.027200 1 5601067x Rx d 8 67 03 BE D7 C5 FC 77 CE 
47606.030200 1 5601065x Rx d 8 E3 16 BC DB 44 2A B1 15 
47606.030200 1 5601066x Rx d 8 DB 28 78 E9 D2 1B D6 21 
47606.031200 1 5601069x Rx d 8 DF F7 F7 FF 38 00 84 C0 
47606.032200 1 5601067x Rx d 8 67 03 BE D7 C5 FC 77 CE 
47606.035200 1 5601065x Rx d 8 E3 16 BC DB 45 2A B0 15 
47606.035200 1 5601066x Rx d 8 DB 28 78 E9 D2 1B D6 21 
47606.036200 1 5601069x Rx d 8 DF F7 F7 FF 37 00 84 C0 
47606.037200 1 5601067x Rx d 8 67 03 BE D7 C5 FC 77 CE 
47606.040200 1 5601065x Rx d 8 E2 16 BC DB 45 2A B0 15 
47606.041200 1 5601066x Rx d 8 DB 28 78 E9 D2 1B D6 21 
47606.041200 1 5601069x Rx d 8 DF F7 F7 FF 37 00 84 C0 
47606.042200 1 5601067x Rx d 8 67 03 BE D7 C5 FC 77 CE 
47606.045200 1 5601065x Rx d 8 E2 16 BD DB 45 2A AF 15 
47606.046200 1 5601066x Rx d 8 DB 28 78 E9 D3 1B D6 21 
47606.046200 1 5601069x Rx d 8 DE F7 F6 FF 36 00 84 C0 
47606.048200 1 5601067x Rx d 8 67 03 BE D7 C5 FC 77 CE 
47606.050200 1 5601065x Rx d 8 E2 16 BC DB 46 2A AF 15 
47606.051200 1 5601066x Rx d 8 DB 28 78 E9 D3 1B D6 21 
47606.051200 1 5601069x Rx d 8 DE F7 F6 FF 36 00 84 C0 
47606.053200 1 5601067x Rx d 8 67 03 BE D7 C6 FC 77 CE 
47606.055200 1 5601065x Rx d 8 E2 16 BC DB 46 2A AF 15 
47606.056200 1 5601066x Rx d 8 DB 28 77 E9 D3 1B D6 21 
47606.056200 1 5601069x Rx d 8 DE F7 F6 FF 35 00 84 C0 
47606.058200 1 5601067x Rx d 8 67 03 BE D7 C6 FC 77 CE 
47606.060200 1 5601065x Rx d 8 E1 16 BC DB 46 2A AE 15 
47606.061200 1 5601066x Rx d 8 DA 28 77 E9 D3 1B D6 21 
47606.061200 1 5601069x Rx d 8 DE F7 F6 FF 35 00 84 C0 
47606.063200 1 5601067x Rx d 8 67 03 BE D7 C6 FC 76 CE 
47606.065200 1 5601065x Rx d 8 E1 16 BC DB 47 2A AE 15 
47606.066200 1 5601066x Rx d 8 DA 28 77 E9 D3 1B D6 21 
47606.066200 1 5601069x Rx d 8 DD F7 F5 FF 34 00 84 C0 
47606.068200 1 5601067x Rx d 8 66 03 BF D7 C6 FC 76 CE 
47606.070200 1 5601065x Rx d 8 F6 16 C3 DB 3A 2A BB 15 
47606.071200 1 5601066x Rx d 8 DA 28 77 E9 D3 1B D6 21 
47606.072200 1 5601069x Rx d 8 DD F7 F5 FF 34 00 84 C0 
47606.073200 1 5601067x Rx d 8 66 03 BF D7 C6 FC 76 CE 
47606.076200 1 5601065x Rx d 8 F6 16 C3 DB 3B 2A BB 15 
47606.076200 1 5601066x Rx d 8 DA 28 77 E9 D3 1B D6 21 
47606.077200 1 5601069x Rx d 8 DD F7 F5 FF 33 00 84 C0 
47606.078200 1 5601067x Rx d 8 66 03 BF D7 C6 FC 75 CE 
47606.081200 1 5601065x Rx d 8 F5 16 C3 DB 3B 2A BA 15 
47606.081200 1 5601066x Rx d 8 DA 28 77 E9 D3 1B D6 21 
47606.082200 1 5601069x Rx d 8 DD F7 F5 FF 33 00 84 C0 
47606.083200 1 5601067x Rx d 8 66 03 BF D7 C6 FC 75 CE 
47606.086200 1 5601065x Rx d 8 F5 16 C3 DB 3B 2A BA 15 
47606.086200 1 5601066x Rx d 8 D9 28 77 E9 D4 1B D6 21 
47606.087200 1 5601069x Rx d 8 DD F7 F5 FF 32 00 84 C0 
47606.088200 1 5601067x Rx d 8 66 03 C0 D7 C6 FC 75 CE 
47606.091200 1 5601065x Rx d 8 F5 16 C3 DB 3C 2A BA 15 
47606.091200 1 5601066x Rx d 8 D9 28 77 E9 D4 1B D6 21 
47606.092200 1 5601069x Rx d 8 DD F7 F5 FF 32 00 84 C0 
47606.093200 1 5601067x Rx d 8 66 03 C0 D7 C6 FC 75 CE 
47606.096200 1 5601065x Rx d 8 F4 16 C3 DB 3C 2A BA 15 
47606.096200 1 5601066x Rx d 8 D9 28 77 E9 D4 1B D6 21 
47606.097200 1 5601069x Rx d 8 DD F7 F5 FF 31 00 84 C0 
47606.098200 1 5601067x Rx d 8 65 03 C0 D7 C7 FC 75 CE 
47606.101200 1 5601065x Rx d 8 F4 16 C3 DB 3C 2A B9 15 
47606.101200 1 5601066x Rx d 8 D9 28 77 E9 D5 1B D6 21 
47606.102200 1 5601069x Rx d 8 DD F7 F4 FF 31 00 84 C0 
47606.103200 1 5601067x Rx d 8 65 03 C0 D7 C7 FC 75 CE 
47606.106200 1 5601065x Rx d 8 F3 16 C3 DB 3D 2A B9 15 
47606.107200 1 5601066x Rx d 8 D9 28 77 E9 D5 1B D6 21 
47606.107200 1 5601069x Rx d 8 DD F7 F4 FF 30 00 84 C0 
47606.108200 1 5601067x Rx d 8 65 03 C0 D7 C7 FC 75 CE 
47606.111200 1 5601065x Rx d 8 F3 16 C2 DB 3D 2A B9 15 
47606.111200 1 5601066x Rx d 8 D8 28 77 E9 D5 1B D6 21 
47606.112200 1 5601069x Rx d 8 DD F7 F4 FF 30 00 84 C0 
47606.113200 1 5601067x Rx d 8 65 03 C0 D7 C7 FC 75 CE 
47606.116200 1 5601065x Rx d 8 F2 16 C2 DB 3D 2A B8 15 
47606.117200 1 5601066x Rx d 8 D8 28 76 E9 D5 1B D6 21 
47606.117200 1 5601069x Rx d 8 DD F7 F4 FF 2F 00 84 C0 
47606.118200 1 5601067x Rx d 8 65 03 C0 D7 C7 FC 75 CE 
47606.121200 1 5601065x Rx d 8 F2 16 C2 DB 3D 2A B8 15 
47606.122200 1 5601066x Rx d 8 D8 28 76 E9 D5 1B D6 21 
47606.122200 1 5601069x Rx d 8 DD F7 F4 FF 2F 00 84 C0 
47606.123200 1 5601067x Rx d 8 65 03 C0 D7 C7 FC 75 CE 
47606.126200 1 5601065x Rx d 8 F1 16 C2 DB 3E 2A B8 15 
47606.127200 1 5601066x Rx d 8 D7 28 76 E9 D5 1B D6 21 
47606.127200 1 5601069x Rx d 8 DC F7 F4 FF 2E 00 84 C0 
47606.129200 1 5601067x Rx d 8 65 03 C0 D7 C7 FC 75 CE 
47606.131200 1 5601065x Rx d 8 F1 16 C2 DB 3E 2A B8 15 
47606.132200 1 5601066x Rx d 8 D7 28 76 E9 D6 1B D7 21 
47606.132200 1 5601069x Rx d 8 DC F7 F4 FF 2E 00 84 C0 
47606.134200 1 5601067x Rx d 8 65 03 C0 D7 C7 FC 75 CE 
47606.136200 1 5601065x Rx d 8 F1 16 C2 DB 3E 2A B7 15 
47606.137200 1 5601066x Rx d 8 D7 28 76 E9 D6 1B D7 21 
47606.137200 1 5601069x Rx d 8 DC F7 F4 FF 2D 00 84 C0 
47606.139200 1 5601067x Rx d 8 65 03 C0 D7 C7 FC 75 CE 
47606.141200 1 5601065x Rx d 8 F1 16 C2 DB 3F 2A B7 15 
47606.142200 1 5601066x Rx d 8 D7 28 76 E9 D6 1B D6 21 
47606.142200 1 5601069x Rx d 8 DC F7 F4 FF 2D 00 84 C0 
47606.144200 1 5601067x Rx d 8 65 03 C0 D7 C7 FC 75 CE 
47606.146200 1 5601065x Rx d 8 F0 16 C2 DB 3F 2A B7 15 
47606.147200 1 5601066x Rx d 8 D6 28 76 E9 D6 1B D6 21 
47606.148200 1 5601069x Rx d 8 DC F7 F4 FF 2C 00 84 C0 
47606.149200 1 5601067x Rx d 8 65 03 C0 D7 C7 FC 75 CE 
47606.151200 1 5601065x Rx d 8 F0 16 C2 DB 3F 2A B6 15 
47606.152200 1 5601066x Rx d 8 D6 28 75 E9 D7 1B D7 21 
47606.153200 1 5601069x Rx d 8 DC F7 F4 FF 2C 00 84 C0 
47606.154200 1 5601067x Rx d 8 65 03 C1 D7 C6 FC 74 CE 
47606.157200 1 5601065x Rx d 8 F0 16 C2 DB 40 2A B6 15 
47606.157200 1 5601066x Rx d 8 D6 28 76 E9 D7 1B D7 21 
47606.158200 1 5601069x Rx d 8 DC F7 F4 FF 2B 00 84 C0 
47606.159200 1 5601067x Rx d 8 65 03 C1 D7 C6 FC 74 CE 
47606.162200 1 5601065x Rx d 8 EF 16 C2 DB 40 2A B6 15 
47606.162200 1 5601066x Rx d 8 D6 28 75 E9 D7 1B D7 21 
47606.163200 1 5601069x Rx d 8 DB F7 F4 FF 2B 00 84 C0 
47606.164200 1 5601067x Rx d 8 64 03 C1 D7 C6 FC 74 CE 
47606.167200 1 5601065x Rx d 8 F4 16 BA DB 3E 2A A9 15 
47606.167200 1 5601066x Rx d 8 D6 28 75 E9 D7 1B D7 21 
47606.168200 1 5601069x Rx d 8 DB F7 F4 FF 2A 00 84 C0 
47606.169200 1 5601067x Rx d 8 64 03 C1 D7 C6 FC 74 CE 
47606.172200 1 5601065x Rx d 8 F4 16 BB DB 3E 2A A9 15 
47606.172200 1 5601066x Rx d 8 D6 28 76 E9 D7 1B D7 21 
47606.173200 1 5601069x Rx d 8 DB F7 F4 FF 2A 00 84 C0 
47606.174200 1 5601067x Rx d 8 64 03 C1 D7 C6 FC 74 CE 
47606.177200 1 5601065x Rx d 8 F3 16 BA DB 3E 2A A8 15 
47606.177200 1 5601066x Rx d 8 D6 28 76 E9 D7 1B D7 21 
47606.178200 1 5601069x Rx d 8 DB F7 F4 FF 29 00 84 C0 
47606.179200 1 5601067x Rx d 8 64 03 C2 D7 C6 FC 74 CE 
47606.182200 1 5601065x Rx d 8 F3 16 BA DB 3E 2A A8 15 
47606.182200 1 5601066x Rx d 8 D5 28 76 E9 D7 1B D7 21 
47606.183200 1 5601069x Rx d 8 DA F7 F3 FF 29 00 85 C0 
47606.184200 1 5601067x Rx d 8 64 03 C2 D7 C7 FC 73 CE 
47606.187200 1 5601065x Rx d 8 F3 16 BA DB 3E 2A A7 15 
47606.187200 1 5601066x Rx d 8 D5 28 76 E9 D8 1B D6 21 
47606.188200 1 5601069x Rx d 8 DA F7 F3 FF 28 00 85 C0 
47606.189200 1 5601067x Rx d 8 63 03 C2 D7 C7 FC 73 CE 
47606.192200 1 5601065x Rx d 8 F3 16 B9 DB 3E 2A A7 15 
47606.193200 1 5601066x Rx d 8 D5 28 76 E9 D8 1B D7 21 
47606.193200 1 5601069x Rx d 8 DA F7 F3 FF 28 00 85 C0 
47606.194200 1 5601067x Rx d 8 63 03 C2 D7 C7 FC 73 CE 
47606.197200 1 5601065x Rx d 8 F2 16 B9 DB 3F 2A A7 15 
47606.198200 1 5601066x Rx d 8 D5 28 75 E9 D8 1B D7 21 
47606.198200 1 5601069x Rx d 8 DA F7 F3 FF 27 00 85 C0 
47606.199200 1 5601067x Rx d 8 63 03 C2 D7 C7 FC 73 CE 
47606.202200 1 5601065x Rx d 8 EF 16 C2 DB 40 2A B7 15 
47606.203200 1 5601066x Rx d 8 D5 28 75 E9 D9 1B D6 21 
47606.203200 1 5601069x Rx d 8 D9 F7 F3 FF 27 00 85 C0 
47606.205200 1 5601067x Rx d 8 63 03 C2 D7 C7 FC 73 CE 
47606.207200 1 5601065x Rx d 8 EF 16 C2 DB 40 2A B6 15 
47606.208200 1 5601066x Rx d 8 D5 28 75 E9 D9 1B D7 21 
47606.208200 1 5601069x Rx d 8 D9 F7 F3 FF 27 00 85 C0 
47606.210200 1 5601067x Rx d 8 63 03 C2 D7 C6 FC 73 CE 
47606.212200 1 5601065x Rx d 8 EE 16 C2 DB 41 2A B6 15 
47606.213200 1 5601066x Rx d 8 D4 28 75 E9 D9 1B D6 21 
47606.213200 1 5601069x Rx d 8 D9 F7 F3 FF 27 00 85 C0 
47606.215200 1 5601067x Rx d 8 63 03 C2 D7 C6 FC 73 CE 
47606.217200 1 5601065x Rx d 8 EE 16 C2 DB 41 2A B6 15 
47606.218200 1 5601066x Rx d 8 D4 28 75 E9 D9 1B D6 21 
47606.218200 1 5601069x Rx d 8 D9 F7 F3 FF 26 00 85 C0 
47606.220200 1 5601067x Rx d 8 63 03 C3 D7 C6 FC 73 CE 
47606.222200 1 5601065x Rx d 8 ED 16 C2 DB 41 2A B6 15 
47606.223200 1 5601066x Rx d 8 D4 28 75 E9 DA 1B D6 21 
47606.223200 1 5601069x Rx d 8 D9 F7 F3 FF 26 00 85 C0 
47606.225200 1 5601067x Rx d 8 62 03 C3 D7 C6 FC 72 CE 
47606.227200 1 5601065x Rx d 8 ED 16 C2 DB 41 2A B6 15 
47606.228200 1 5601066x Rx d 8 D4 28 75 E9 DA 1B D6 21 
47606.229200 1 5601069x Rx d 8 D9 F7 F3 FF 26 00 85 C0 
47606.230200 1 5601067x Rx d 8 62 03 C3 D7 C6 FC 72 CE 
47606.233200 1 5601065x Rx d 8 ED 16 C2 DB 41 2A B5 15 
47606.233200 1 5601066x Rx d 8 D4 28 75 E9 DB 1B D6 21 
47606.234200 1 5601069x Rx d 8 D9 F7 F3 FF 25 00 85 C0 
47606.235200 1 5601067x Rx d 8 62 03 C3 D7 C7 FC 72 CE 
47606.238200 1 5601065x Rx d 8 EC 16 C2 DB 42 2A B5 15 
47606.238200 1 2001065x Rx d 8 A7 C1 74 90 AD 04 DE 7F 
47606.239200 1 5601066x Rx d 8 D4 28 75 E9 DB 1B D6 21 
47606.239200 1 2001066x Rx d 8 BC 2F 4F 89 06 03 F7 7F 
47606.240200 1 5601069x Rx d 8 D8 F7 F3 FF 25 00 85 C0 
47606.240200 1 2001069x Rx d 8 FF FE 1E 00 00 80 F3 7F 
47606.241200 1 5601067x Rx d 8 62 03 C3 D7 C7 FC 72 CE 
47606.241200 1 2001067x Rx d 8 4E 16 0B 7E 54 04 EE 7F 
47606.243200 1 5601065x Rx d 8 EC 16 C1 DB 42 2A B5 15 
47606.243200 1 5601066x Rx d 8 D4 28 75 E9 DB 1B D6 21 
47606.244200 1 5601069x Rx d 8 D8 F7 F3 FF 24 00 85 C0 
47606.245200 1 5601067x Rx d 8 62 03 C3 D7 C7 FC 72 CE 
47606.248200 1 5601065x Rx d 8 EC 16 C2 DB 42 2A B5 15 
47606.248200 1 5601066x Rx d 8 D4 28 75 E9 DB 1B D6 21 
47606.249200 1 5601069x Rx d 8 D8 F7 F3 FF 24 00 85 C0 
47606.250200 1 5601067x Rx d 8 62 03 C3 D7 C7 FC 72 CE 
47606.253200 1 5601065x Rx d 8 EC 16 C1 DB 42 2A B5 15 
47606.253200 1 5601066x Rx d 8 D3 28 75 E9 DB 1B D6 21 
47606.254200 1 5601069x Rx d 8 D7 F7 FB FF 39 00 85 C0 
47606.255200 1 5601067x Rx d 8 62 03 C3 D7 C7 FC 72 CE 
47606.258200 1 5601065x Rx d 8 EB 16 C1 DB 43 2A B4 15 
47606.258200 1 5601066x Rx d 8 D3 28 75 E9 DC 1B D6 21 
47606.259200 1 5601069x Rx d 8 D7 F7 FB FF 38 00 85 C0 
47606.260200 1 5601067x Rx d 8 62 03 C4 D7 C7 FC 71 CE 
47606.263200 1 5601065x Rx d 8 EB 16 C1 DB 43 2A B4 15 
47606.263200 1 5601066x Rx d 8 D3 28 75 E9 DC 1B D6 21 
47606.264200 1 5601069x Rx d 8 D7 F7 FB FF 38 00 85 C0 
47606.265200 1 5601067x Rx d 8 61 03 C4 D7 C7 FC 71 CE 
47606.268200 1 5601065x Rx d 8 EA 16 C1 DB 43 2A B4 15 
47606.268200 1 5601066x Rx d 8 D3 28 75 E9 DC 1B D6 21 
47606.269200 1 5601069x Rx d 8 D7 F7 FB FF 37 00 85 C0 
47606.270200 1 5601067x Rx d 8 61 03 C4 D7 C7 FC 71 CE 
47606.273200 1 5601065x Rx d 8 EA 16 C1 DB 44 2A B3 15 
47606.274200 1 5601066x Rx d 8 D3 28 75 E9 DC 1B D6 21 
47606.274200 1 5601069x Rx d 8 D7 F7 FA FF 37 00 85 C0 
47606.275200 1 5601067x Rx d 8 61 03 C4 D7 C7 FC 71 CE 
47606.278200 1 5601065x Rx d 8 EA 16 C1 DB 44 2A B3 15 
47606.279200 1 5601066x Rx d 8 D3 28 75 E9 DC 1B D6 21 
47606.279200 1 5601069x Rx d 8 D7 F7 FA FF 36 00 85 C0 
47606.280200 1 5601067x Rx d 8 61 03 C4 D7 C7 FC 71 CE 
47606.283200 1 5601065x Rx d 8 E9 16 C1 DB 44 2A B3 15 
47606.284200 1 5601066x Rx d 8 D3 28 76 E9 DC 1B D6 21 
47606.284200 1 5601069x Rx d 8 D7 F7 FA FF 36 00 85 C0 
47606.286200 1 5601067x Rx d 8 61 03 C4 D7 C8 FC 71 CE 
47606.288200 1 5601065x Rx d 8 E9 16 C1 DB 45 2A B2 15 
47606.289200 1 5601066x Rx d 8 D3 28 75 E9 DD 1B D6 21 
47606.289200 1 5601069x Rx d 8 D7 F7 FA FF 35 00 85 C0 
47606.291200 1 5601067x Rx d 8 61 03 C4 D7 C8 FC 71 CE 
47606.293200 1 5601065x Rx d 8 E9 16 C1 DB 45 2A B1 15 
47606.294200 1 5601066x Rx d 8 D2 28 75 E9 DD 1B D6 21 
47606.294200 1 5601069x Rx d 8 D7 F7 F9 FF 35 00 85 C0 
47606.296200 1 5601067x Rx d 8 61 03 C4 D7 C8 FC 71 CE 
47606.298200 1 5601065x Rx d 8 E9 16 C0 DB 45 2A B1 15 
47606.299200 1 5601066x Rx d 8 D2 28 75 E9 DD 1B D6 21 
47606.299200 1 5601069x Rx d 8 D7 F7 F9 FF 34 00 85 C0 
47606.301200 1 5601067x Rx d 8 61 03 C5 D7 C8 FC 71 CE 
47606.303200 1 5601065x Rx d 8 E9 16 C0 DB 45 2A B0 15 
47606.304200 1 5601066x Rx d 8 D2 28 75 E9 DD 1B D6 21 
47606.304200 1 5601069x Rx d 8 D7 F7 F9 FF 34 00 85 C0 
47606.306200 1 5601067x Rx d 8 60 03 C5 D7 C8 FC 70 CE 
47606.308200 1 5601065x Rx d 8 E8 16 C0 DB 45 2A B0 15 
47606.309200 1 5601066x Rx d 8 D2 28 75 E9 DE 1B D6 21 
47606.310200 1 5601069x Rx d 8 D6 F7 F9 FF 33 00 85 C0 
47606.311200 1 5601067x Rx d 8 60 03 C5 D7 C8 FC 70 CE 
47606.314200 1 5601065x Rx d 8 E8 16 C0 DB 45 2A B0 15 
47606.314200 1 5601066x Rx d 8 D2 28 75 E9 DE 1B D6 21 
47606.315200 1 5601069x Rx d 8 D6 F7 F9 FF 33 00 85 C0 
47606.316200 1 5601067x Rx d 8 60 03 C5 D7 C8 FC 70 CE 
47606.319200 1 5601065x Rx d 8 E7 16 BF DB 45 2A AF 15 
47606.319200 1 5601066x Rx d 8 D2 28 74 E9 DE 1B D6 21 
47606.320200 1 5601069x Rx d 8 D6 F7 F9 FF 32 00 85 C0 
47606.321200 1 5601067x Rx d 8 60 03 C5 D7 C8 FC 70 CE 
47606.324200 1 5601065x Rx d 8 E7 16 BF DB 46 2A AF 15 
47606.324200 1 5601069x Rx d 8 D6 F7 F9 FF 32 00 85 C0 
47606.325200 1 5601066x Rx d 8 D1 28 75 E9 DE 1B D6 21 
47606.326200 1 5601067x Rx d 8 60 03 C5 D7 C8 FC 70 CE 
47606.329200 1 5601065x Rx d 8 E6 16 BF DB 46 2A AF 15 
47606.329200 1 5601066x Rx d 8 D1 28 74 E9 DF 1B D5 21 
47606.330200 1 5601069x Rx d 8 D6 F7 F9 FF 31 00 85 C0 
47606.331200 1 5601067x Rx d 8 5F 03 C5 D7 C8 FC 70 CE 
47606.334200 1 5601065x Rx d 8 E6 16 BF DB 46 2A AE 15 
47606.334200 1 5601066x Rx d 8 D1 28 74 E9 DF 1B D5 21 
47606.335200 1 5601069x Rx d 8 D6 F7 F9 FF 31 00 85 C0 
47606.336200 1 5601067x Rx d 8 5F 03 C5 D7 C8 FC 70 CE 
47606.339200 1 5601065x Rx d 8 E6 16 BF DB 46 2A AE 15 
47606.339200 1 5601066x Rx d 8 D1 28 74 E9 DF 1B D5 21 
47606.340200 1 5601069x Rx d 8 D6 F7 F9 FF 30 00 85 C0 
47606.341200 1 5601067x Rx d 8 5F 03 C6 D7 C8 FC 70 CE 
47606.344200 1 5601065x Rx d 8 E6 16 BF DB 47 2A AD 15 
47606.344200 1 5601066x Rx d 8 D0 28 74 E9 DF 1B D5 21 
47606.345200 1 5601069x Rx d 8 D6 F7 F9 FF 30 00 85 C0 
47606.346200 1 5601067x Rx d 8 5F 03 C6 D7 C9 FC 6F CE 
47606.349200 1 5601065x Rx d 8 E6 16 BE DB 47 2A AD 15 
47606.350200 1 5601066x Rx d 8 D0 28 74 E9 DF 1B D6 21 
47606.350200 1 5601069x Rx d 8 D5 F7 F9 FF 2F 00 85 C0 
47606.351200 1 5601067x Rx d 8 5F 03 C6 D7 C9 FC 6F CE 
47606.354200 1 5601065x Rx d 8 E5 16 BE DB 47 2A AD 15 
47606.355200 1 5601066x Rx d 8 D0 28 74 E9 DF 1B D6 21 
47606.355200 1 5601069x Rx d 8 D5 F7 F9 FF 2F 00 85 C0 
47606.357200 1 5601067x Rx d 8 5F 03 C6 D7 C9 FC 6F CE 
47606.359200 1 5601065x Rx d 8 E5 16 BE DB 47 2A AD 15 
47606.360200 1 5601066x Rx d 8 D0 28 74 E9 E0 1B D5 21 
47606.360200 1 5601069x Rx d 8 D5 F7 F9 FF 2E 00 85 C0 
47606.362200 1 5601067x Rx d 8 5E 03 C6 D7 C9 FC 6F CE 
47606.364200 1 5601065x Rx d 8 E4 16 BE DB 47 2A AD 15 
47606.365200 1 5601066x Rx d 8 D0 28 74 E9 E0 1B D5 21 
47606.365200 1 5601069x Rx d 8 D5 F7 F9 FF 2E 00 85 C0 
47606.367200 1 5601067x Rx d 8 5E 03 C7 D7 C9 FC 6E CE 
47606.369200 1 5601065x Rx d 8 FC 16 BF DB 3A 2A B1 15 
47606.370200 1 5601066x Rx d 8 CF 28 73 E9 E0 1B D6 21 
47606.370200 1 5601069x Rx d 8 D5 F7 F9 FF 2D 00 85 C0 
47606.372200 1 5601067x Rx d 8 5E 03 C7 D7 C9 FC 6E CE 
47606.374200 1 5601065x Rx d 8 FB 16 C0 DB 3A 2A B1 15 
47606.375200 1 5601066x Rx d 8 CF 28 73 E9 E0 1B D6 21 
47606.375200 1 5601069x Rx d 8 D5 F7 F9 FF 2D 00 85 C0 
47606.377200 1 5601067x Rx d 8 5E 03 C7 D7 C9 FC 6E CE 
47606.379200 1 5601065x Rx d 8 FB 16 BF DB 3A 2A B0 15 
47606.380200 1 5601066x Rx d 8 CF 28 73 E9 E1 1B D6 21 
47606.381200 1 5601069x Rx d 8 D5 F7 F9 FF 2C 00 85 C0 
47606.382200 1 5601067x Rx d 8 5E 03 C7 D7 C9 FC 6E CE 
47606.384200 1 5601065x Rx d 8 FB 16 C0 DB 3A 2A B0 15 
47606.385200 1 5601066x Rx d 8 CF 28 73 E9 E1 1B D5 21 
47606.386200 1 5601069x Rx d 8 D5 F7 F9 FF 2C 00 85 C0 
47606.387200 1 5601067x Rx d 8 5E 03 C7 D7 C9 FC 6E CE 
47606.390200 1 5601065x Rx d 8 FB 16 C0 DB 3B 2A B0 15 
47606.390200 1 5601066x Rx d 8 CF 28 73 E9 E1 1B D5 21 
47606.391200 1 5601069x Rx d 8 D5 F7 F9 FF 2B 00 85 C0 
47606.392200 1 5601067x Rx d 8 5D 03 C7 D7 C9 FC 6E CE 
47606.395200 1 5601065x Rx d 8 FA 16 C0 DB 3B 2A B0 15 
47606.395200 1 5601066x Rx d 8 CF 28 73 E9 E2 1B D5 21 
47606.396200 1 5601069x Rx d 8 D5 F7 F9 FF 2B 00 85 C0 
47606.397200 1 5601067x Rx d 8 5D 03 C7 D7 C9 FC 6E CE 
47606.400200 1 5601065x Rx d 8 FA 16 C0 DB 3B 2A AF 15 
47606.400200 1 5601069x Rx d 8 D5 F7 F9 FF 2A 00 85 C0 
47606.401200 1 5601066x Rx d 8 DF 28 80 E9 CA 1B DE 21 
47606.402200 1 5601067x Rx d 8 5D 03 C7 D7 C9 FC 6E CE 
47606.405200 1 5601065x Rx d 8 FA 16 BF DB 3B 2A AF 15 
47606.405200 1 5601066x Rx d 8 DE 28 80 E9 CA 1B DE 21 
47606.406200 1 5601069x Rx d 8 D5 F7 F9 FF 2A 00 85 C0 
47606.407200 1 5601067x Rx d 8 5C 03 C8 D7 C9 FC 6E CE 
47606.410200 1 5601065x Rx d 8 FA 16 BF DB 3B 2A AF 15 
47606.410200 1 5601066x Rx d 8 DE 28 80 E9 CA 1B DE 21 
47606.411200 1 5601069x Rx d 8 D5 F7 F8 FF 2A 00 85 C0 
47606.412200 1 5601067x Rx d 8 5C 03 C8 D7 C9 FC 6E CE 
47606.415200 1 5601065x Rx d 8 F9 16 BF DB 3B 2A AF 15 
47606.415200 1 5601066x Rx d 8 DE 28 80 E9 CA 1B DE 21 
47606.416200 1 5601069x Rx d 8 D5 F7 F8 FF 29 00 85 C0 
47606.417200 1 5601067x Rx d 8 5C 03 C8 D7 C9 FC 6E CE 
47606.420200 1 5601065x Rx d 8 F8 16 C8 DB 3D 2A BE 15 
47606.421200 1 5601066x Rx d 8 DE 28 80 E9 CB 1B DE 21 
47606.421200 1 5601069x Rx d 8 D5 F7 F8 FF 29 00 85 C0 
47606.422200 1 5601067x Rx d 8 5C 03 C8 D7 C9 FC 6D CE 
47606.425200 1 5601065x Rx d 8 F8 16 C8 DB 3D 2A BE 15 
47606.426200 1 5601066x Rx d 8 DE 28 80 E9 CB 1B DE 21 
47606.426200 1 5601069x Rx d 8 D5 F7 F8 FF 29 00 85 C0 
47606.427200 1 5601067x Rx d 8 5C 03 C8 D7 C9 FC 6D CE 
47606.430200 1 5601065x Rx d 8 F7 16 C8 DB 3D 2A BE 15 
47606.431200 1 5601066x Rx d 8 DE 28 80 E9 CB 1B DE 21 
47606.431200 1 5601069x Rx d 8 D5 F7 F8 FF 28 00 85 C0 
47606.432200 1 5601067x Rx d 8 5C 03 C8 D7 C9 FC 6D CE 
47606.435200 1 5601065x Rx d 8 F7 16 C8 DB 3D 2A BE 15 
47606.436200 1 5601069x Rx d 8 D5 F7 F8 FF 28 00 85 C0 
47606.436200 1 5601066x Rx d 8 DE 28 7F E9 CB 1B DE 21 
47606.438200 1 5601067x Rx d 8 5C 03 C8 D7 C9 FC 6D CE 
47606.440200 1 5601065x Rx d 8 F7 16 C8 DB 3D 2A BE 15 
47606.441200 1 5601066x Rx d 8 DE 28 7F E9 CC 1B DD 21 
47606.441200 1 5601069x Rx d 8 D5 F7 F8 FF 27 00 85 C0 
47606.443200 1 5601067x Rx d 8 5C 03 C8 D7 C9 FC 6D CE 
47606.445200 1 5601065x Rx d 8 F7 16 C8 DB 3E 2A BD 15 
47606.446200 1 5601066x Rx d 8 DD 28 7F E9 CC 1B DD 21 
47606.446200 1 5601069x Rx d 8 D5 F7 F8 FF 27 00 85 C0 
47606.448200 1 5601067x Rx d 8 5B 03 C9 D7 C9 FC 6D CE 
47606.450200 1 5601065x Rx d 8 F6 16 C8 DB 3E 2A BD 15 
47606.451200 1 5601066x Rx d 8 DD 28 7F E9 CC 1B DD 21 
47606.451200 1 5601069x Rx d 8 D5 F7 F8 FF 26 00 85 C0 
47606.453200 1 5601067x Rx d 8 5B 03 C9 D7 C9 FC 6D CE 
47606.455200 1 5601065x Rx d 8 F6 16 C8 DB 3E 2A BC 15 
47606.456200 1 5601066x Rx d 8 DD 28 7F E9 CC 1B DD 21 
47606.457200 1 5601069x Rx d 8 D5 F7 F8 FF 26 00 85 C0 
47606.458200 1 5601067x Rx d 8 5B 03 C9 D7 C9 FC 6D CE 
47606.460200 1 5601065x Rx d 8 F6 16 C8 DB 3F 2A BC 15 
47606.461200 1 5601066x Rx d 8 DD 28 7F E9 CC 1B DE 21 
47606.461200 1 5601069x Rx d 8 D5 F7 F8 FF 25 00 85 C0 
47606.463200 1 5601067x Rx d 8 5B 03 C9 D7 C9 FC 6C CE 
47606.466200 1 5601065x Rx d 8 F5 16 C8 DB 3F 2A BC 15 
47606.466200 1 5601066x Rx d 8 DC 28 7F E9 CC 1B DE 21 
47606.467200 1 5601069x Rx d 8 D5 F7 F8 FF 25 00 85 C0 
47606.468200 1 5601067x Rx d 8 5A 03 C9 D7 C9 FC 6C CE 
47606.471200 1 5601065x Rx d 8 F5 16 C7 DB 3F 2A BB 15 
47606.471200 1 5601066x Rx d 8 DC 28 7F E9 CD 1B DD 21 
47606.472200 1 5601069x Rx d 8 D5 F7 F8 FF 24 00 85 C0 
47606.473200 1 5601067x Rx d 8 5A 03 C9 D7 C9 FC 6C CE 
47606.476200 1 5601065x Rx d 8 F5 16 C7 DB 3F 2A BB 15 
47606.476200 1 5601066x Rx d 8 DC 28 7F E9 CD 1B DE 21 
47606.477200 1 5601069x Rx d 8 D5 F7 FA FF 39 00 85 C0 
47606.478200 1 5601067x Rx d 8 5A 03 C9 D7 CA FC 6C CE 
47606.481200 1 5601065x Rx d 8 F5 16 C7 DB 3F 2A BA 15 
47606.481200 1 5601066x Rx d 8 DC 28 7F E9 CD 1B DE 21 
47606.482200 1 5601069x Rx d 8 D4 F7 F9 FF 39 00 85 C0 
47606.483200 1 5601067x Rx d 8 5A 03 C9 D7 CA FC 6C CE 
47606.486200 1 5601065x Rx d 8 F4 16 C7 DB 3F 2A BA 15 
47606.486200 1 5601066x Rx d 8 DC 28 7F E9 CD 1B DE 21 
47606.487200 1 5601069x Rx d 8 D4 F7 F9 FF 38 00 85 C0 
47606.488200 1 5601067x Rx d 8 5A 03 C9 D7 CA FC 6C CE 
47606.491200 1 5601065x Rx d 8 F4 16 C7 DB 40 2A B9 15 
47606.491200 1 2001065x Rx d 8 AA C1 77 90 A8 04 DB 7F 
47606.492200 1 5601066x Rx d 8 DC 28 7F E9 CD 1B DE 21 
47606.492200 1 2001066x Rx d 8 B5 2F 59 89 04 03 EA 7F 
47606.493200 1 5601069x Rx d 8 D4 F7 F9 FF 38 00 85 C0 
47606.494200 1 2001069x Rx d 8 FD FE 19 00 00 80 F3 7F 
47606.494200 1 5601067x Rx d 8 59 03 C9 D7 CA FC 6C CE 
47606.495200 1 2001067x Rx d 8 4E 16 04 7E 52 04 F6 7F 
47606.496200 1 5601065x Rx d 8 F4 16 C7 DB 40 2A B9 15 
47606.497200 1 5601066x Rx d 8 DB 28 7F E9 CD 1B DE 21 
47606.497200 1 5601069x Rx d 8 D4 F7 F9 FF 37 00 85 C0 
47606.498200 1 5601067x Rx d 8 59 03 C9 D7 CA FC 6C CE 
47606.501200 1 5601065x Rx d 8 F3 16 C7 DB 40 2A B9 15 
47606.502200 1 5601066x Rx d 8 DB 28 7F E9 CE 1B DE 21 
47606.502200 1 5601069x Rx d 8 D4 F7 F9 FF 37 00 85 C0 
47606.503200 1 5601067x Rx d 8 59 03 C9 D7 CA FC 6C CE 
47606.506200 1 5601065x Rx d 8 F3 16 C6 DB 41 2A B8 15 
47606.507200 1 5601066x Rx d 8 DB 28 7F E9 CE 1B DE 21 
47606.507200 1 5601069x Rx d 8 D4 F7 F9 FF 36 00 85 C0 
47606.509200 1 5601067x Rx d 8 58 03 C9 D7 CA FC 6C CE 
47606.511200 1 5601065x Rx d 8 F2 16 C6 DB 41 2A B8 15 
47606.512200 1 5601066x Rx d 8 DB 28 7F E9 CE 1B DE 21 
47606.512200 1 5601069x Rx d 8 D4 F7 F9 FF 36 00 85 C0 
47606.513200 1 5601067x Rx d 8 58 03 C9 D7 CA FC 6C CE 
47606.516200 1 5601065x Rx d 8 F2 16 C6 DB 41 2A B7 15 
47606.517200 1 5601066x Rx d 8 DB 28 7F E9 CE 1B DE 21 
47606.517200 1 5601069x Rx d 8 D4 F7 F9 FF 36 00 85 C0 
47606.519200 1 5601067x Rx d 8 58 03 C9 D7 CA FC 6C CE 
47606.521200 1 5601065x Rx d 8 F2 16 C6 DB 41 2A B7 15 
47606.522200 1 5601066x Rx d 8 DA 28 7E E9 CF 1B DE 21 
47606.522200 1 5601069x Rx d 8 D4 F7 F9 FF 36 00 85 C0 
47606.524200 1 5601067x Rx d 8 57 03 CA D7 CA FC 6C CE 
47606.526200 1 5601065x Rx d 8 F2 16 C6 DB 41 2A B6 15 
47606.527200 1 5601066x Rx d 8 DA 28 7E E9 CF 1B DE 21 
47606.527200 1 5601069x Rx d 8 D4 F7 F9 FF 35 00 85 C0 
47606.529200 1 5601067x Rx d 8 57 03 CA D7 CA FC 6C CE 
47606.531200 1 5601065x Rx d 8 F2 16 C5 DB 42 2A B6 15 
47606.532200 1 5601066x Rx d 8 DA 28 7E E9 CF 1B DE 21 
47606.532200 1 5601069x Rx d 8 D4 F7 F9 FF 35 00 85 C0 
47606.534200 1 5601067x Rx d 8 57 03 CA D7 CA FC 6C CE 
47606.536200 1 5601065x Rx d 8 F2 16 C5 DB 42 2A B6 15 
47606.537200 1 5601066x Rx d 8 DA 28 7F E9 CF 1B DE 21 
47606.538200 1 5601069x Rx d 8 D3 F7 F9 FF 35 00 86 C0 
47606.539200 1 5601067x Rx d 8 57 03 CA D7 CA FC 6C CE 
47606.541200 1 5601065x Rx d 8 F2 16 C5 DB 41 2A B5 15 
47606.542200 1 5601066x Rx d 8 DA 28 7E E9 CF 1B DE 21 
47606.543200 1 5601069x Rx d 8 D3 F7 F9 FF 34 00 86 C0 
47606.544200 1 5601067x Rx d 8 57 03 CA D7 CA FC 6C CE 
47606.547200 1 5601065x Rx d 8 F1 16 C5 DB 42 2A B5 15 
47606.547200 1 5601066x Rx d 8 DA 28 7E E9 CF 1B DD 21 
47606.548200 1 5601069x Rx d 8 D3 F7 F9 FF 34 00 86 C0 
47606.549200 1 5601067x Rx d 8 57 03 CA D7 C9 FC 6B CE 
47606.552200 1 5601065x Rx d 8 F1 16 C5 DB 42 2A B4 15 
47606.552200 1 5601066x Rx d 8 DA 28 7E E9 D0 1B DD 21 
47606.553200 1 5601069x Rx d 8 D3 F7 F9 FF 34 00 86 C0 
47606.554200 1 5601067x Rx d 8 5B 03 B5 D7 CF FC 7C CE 
47606.557200 1 5601065x Rx d 8 F1 16 C5 DB 42 2A B4 15 
47606.557200 1 5601066x Rx d 8 DA 28 7E E9 D0 1B DD 21 
47606.558200 1 5601069x Rx d 8 D3 F7 F8 FF 33 00 86 C0 
47606.559200 1 5601067x Rx d 8 5B 03 B6 D7 D0 FC 7C CE 
47606.562200 1 5601065x Rx d 8 F0 16 C5 DB 43 2A B4 15 
47606.562200 1 5601066x Rx d 8 DA 28 7E E9 D0 1B DD 21 
47606.563200 1 5601069x Rx d 8 D3 F7 F8 FF 33 00 86 C0 
47606.564200 1 5601067x Rx d 8 5B 03 B6 D7 D0 FC 7C CE 
47606.567200 1 5601065x Rx d 8 F0 16 C4 DB 43 2A B4 15 
47606.567200 1 5601069x Rx d 8 D2 F7 F8 FF 32 00 86 C0 
47606.568200 1 5601066x Rx d 8 E0 28 72 E9 C8 1B D5 21 
47606.569200 1 5601067x Rx d 8 5B 03 B6 D7 D0 FC 7C CE 
47606.572200 1 5601065x Rx d 8 F0 16 C4 DB 43 2A B4 15 
47606.572200 1 5601066x Rx d 8 DF 28 72 E9 C8 1B D5 21 
47606.573200 1 5601069x Rx d 8 D2 F7 F8 FF 32 00 86 C0 
47606.574200 1 5601067x Rx d 8 5B 03 B6 D7 D0 FC 7C CE 
47606.577200 1 5601065x Rx d 8 F0 16 C4 DB 43 2A B4 15 
47606.577200 1 5601066x Rx d 8 DF 28 72 E9 C9 1B D5 21 
47606.578200 1 5601069x Rx d 8 D2 F7 F7 FF 31 00 86 C0 
47606.579200 1 5601067x Rx d 8 5A 03 B6 D7 D0 FC 7B CE 
47606.582200 1 5601065x Rx d 8 EF 16 C4 DB 43 2A B4 15 
47606.582200 1 5601066x Rx d 8 DF 28 72 E9 C9 1B D5 21 
47606.583200 1 5601069x Rx d 8 D2 F7 F7 FF 31 00 86 C0 
47606.584200 1 5601067x Rx d 8 5A 03 B6 D7 D0 FC 7B CE 
47606.587200 1 5601065x Rx d 8 EF 16 C5 DB 43 2A B3 15 
47606.588200 1 5601066x Rx d 8 DF 28 72 E9 C9 1B D5 21 
47606.588200 1 5601069x Rx d 8 D1 F7 F7 FF 30 00 86 C0 
47606.589200 1 5601067x Rx d 8 5A 03 B6 D7 D0 FC 7B CE 
47606.592200 1 5601065x Rx d 8 EF 16 C4 DB 44 2A B3 15 
47606.593200 1 5601066x Rx d 8 DF 28 72 E9 C9 1B D4 21 
47606.593200 1 5601069x Rx d 8 D1 F7 F7 FF 30 00 86 C0 
47606.595200 1 5601067x Rx d 8 5A 03 B7 D7 D1 FC 7B CE 
47606.597200 1 5601065x Rx d 8 EF 16 C4 DB 44 2A B3 15 
47606.598200 1 5601066x Rx d 8 DF 28 72 E9 CA 1B D4 21 
47606.598200 1 5601069x Rx d 8 D1 F7 F7 FF 2F 00 86 C0 
47606.600200 1 5601067x Rx d 8 5A 03 B7 D7 D1 FC 7B CE 
47606.602200 1 5601065x Rx d 8 EE 16 C4 DB 44 2A B3 15 
47606.603200 1 5601066x Rx d 8 DF 28 72 E9 CA 1B D4 21 
47606.603200 1 5601069x Rx d 8 D1 F7 F7 FF 2F 00 86 C0 
47606.605200 1 5601067x Rx d 8 5A 03 B7 D7 D1 FC 7B CE 
47606.607200 1 5601065x Rx d 8 EE 16 C4 DB 45 2A B3 15 
47606.608200 1 5601066x Rx d 8 DF 28 72 E9 CA 1B D4 21 
47606.608200 1 5601069x Rx d 8 D0 F7 F7 FF 2F 00 86 C0 
47606.610200 1 5601067x Rx d 8 59 03 B7 D7 D1 FC 7A CE 
47606.612200 1 5601065x Rx d 8 EE 16 C4 DB 45 2A B3 15 
47606.613200 1 5601066x Rx d 8 DE 28 72 E9 CA 1B D4 21 
47606.613200 1 5601069x Rx d 8 D0 F7 F7 FF 2E 00 86 C0 
47606.615200 1 5601067x Rx d 8 59 03 B7 D7 D1 FC 7A CE 
47606.617200 1 5601065x Rx d 8 ED 16 C4 DB 45 2A B2 15 
47606.618200 1 5601066x Rx d 8 DE 28 72 E9 CB 1B D4 21 
47606.619200 1 5601069x Rx d 8 D0 F7 F7 FF 2E 00 86 C0 
47606.620200 1 5601067x Rx d 8 59 03 B8 D7 D1 FC 7A CE 
47606.623200 1 5601065x Rx d 8 ED 16 C4 DB 45 2A B2 15 
47606.623200 1 5601066x Rx d 8 DE 28 72 E9 CB 1B D4 21 
47606.624200 1 5601069x Rx d 8 D0 F7 F7 FF 2D 00 86 C0 
47606.625200 1 5601067x Rx d 8 58 03 B8 D7 D0 FC 7A CE 
47606.628200 1 5601065x Rx d 8 EC 16 C4 DB 46 2A B2 15 
47606.628200 1 5601066x Rx d 8 DE 28 72 E9 CB 1B D4 21 
47606.629200 1 5601069x Rx d 8 CF F7 F7 FF 2D 00 86 C0 
47606.630200 1 5601067x Rx d 8 58 03 B8 D7 D0 FC 7A CE 
47606.633200 1 5601065x Rx d 8 EC 16 C4 DB 46 2A B1 15 
47606.633200 1 5601066x Rx d 8 DE 28 72 E9 CC 1B D4 21 
47606.634200 1 5601069x Rx d 8 CF F7 F7 FF 2C 00 86 C0 
47606.635200 1 5601067x Rx d 8 57 03 B8 D7 D0 FC 7A CE 
47606.638200 1 5601065x Rx d 8 EB 16 C4 DB 46 2A B1 15 
47606.638200 1 5601066x Rx d 8 DE 28 72 E9 CC 1B D4 21 
47606.639200 1 5601069x Rx d 8 CF F7 F7 FF 2C 00 86 C0 
47606.640200 1 5601067x Rx d 8 57 03 B8 D7 D0 FC 7A CE 
47606.643200 1 5601065x Rx d 8 EB 16 C3 DB 46 2A B0 15 
47606.643200 1 5601066x Rx d 8 DE 28 72 E9 CC 1B D4 21 
47606.644200 1 5601069x Rx d 8 CF F7 F6 FF 2C 00 86 C0 
47606.645200 1 5601067x Rx d 8 57 03 B8 D7 D0 FC 7A CE 
47606.648200 1 5601065x Rx d 8 EB 16 C3 DB 47 2A B0 15 
47606.648200 1 5601066x Rx d 8 D9 28 7D E9 D4 1B DB 21 
47606.649200 1 5601069x Rx d 8 CE F7 F6 FF 2B 00 86 C0 
47606.650200 1 5601067x Rx d 8 57 03 B8 D7 D0 FC 7A CE 
47606.653200 1 5601065x Rx d 8 EB 16 C3 DB 46 2A B0 15 
47606.653200 1 5601066x Rx d 8 D8 28 7D E9 D4 1B DB 21 
47606.654200 1 5601069x Rx d 8 CE F7 F6 FF 2B 00 86 C0 
47606.655200 1 5601067x Rx d 8 57 03 B8 D7 D0 FC 7A CE 
47606.658200 1 5601065x Rx d 8 EB 16 C2 DB 47 2A AF 15 
47606.659200 1 5601066x Rx d 8 D8 28 7D E9 D4 1B DB 21 
47606.659200 1 5601069x Rx d 8 CE F7 F6 FF 2A 00 86 C0 
47606.660200 1 5601067x Rx d 8 57 03 B8 D7 D0 FC 7A CE 
47606.663200 1 5601065x Rx d 8 EB 16 C2 DB 47 2A AF 15 
47606.664200 1 5601066x Rx d 8 D8 28 7D E9 D4 1B DC 21 
47606.664200 1 5601069x Rx d 8 CE F7 F6 FF 2A 00 86 C0 
47606.665200 1 5601067x Rx d 8 57 03 B8 D7 D0 FC 79 CE 
47606.668200 1 5601065x Rx d 8 EA 16 C2 DB 47 2A AF 15 
47606.669200 1 5601066x Rx d 8 D8 28 7C E9 D4 1B DB 21 
47606.669200 1 5601069x Rx d 8 CE F7 F6 FF 29 00 86 C0 
47606.671200 1 5601067x Rx d 8 57 03 B8 D7 D0 FC 79 CE 
47606.673200 1 5601065x Rx d 8 EA 16 C2 DB 47 2A AE 15 
47606.674200 1 5601066x Rx d 8 D7 28 7C E9 D5 1B DB 21 
47606.674200 1 5601069x Rx d 8 CD F7 F6 FF 29 00 86 C0 
47606.676200 1 5601067x Rx d 8 57 03 B8 D7 D0 FC 79 CE 
47606.678200 1 5601065x Rx d 8 EA 16 C2 DB 47 2A AE 15 
47606.679200 1 5601066x Rx d 8 D7 28 7C E9 D5 1B DB 21 
47606.679200 1 5601069x Rx d 8 CD F7 F6 FF 28 00 86 C0 
47606.681200 1 5601067x Rx d 8 57 03 B8 D7 D0 FC 79 CE 
47606.683200 1 5601065x Rx d 8 EA 16 C2 DB 47 2A AD 15 
47606.684200 1 5601066x Rx d 8 D7 28 7C E9 D6 1B DB 21 
47606.684200 1 5601069x Rx d 8 CD F7 F7 FF 3D 00 86 C0 
47606.686200 1 5601067x Rx d 8 57 03 B8 D7 D0 FC 79 CE 
47606.688200 1 5601065x Rx d 8 EA 16 C2 DB 47 2A AD 15 
47606.689200 1 5601066x Rx d 8 D7 28 7C E9 D6 1B DB 21 
47606.689200 1 5601069x Rx d 8 CD F7 F7 FF 3C 00 86 C0 
47606.691200 1 5601067x Rx d 8 57 03 B8 D7 D0 FC 79 CE 
47606.693200 1 5601065x Rx d 8 EA 16 C2 DB 47 2A AD 15 
47606.694200 1 5601066x Rx d 8 D6 28 7C E9 D6 1B DB 21 
47606.695200 1 5601069x Rx d 8 CC F7 F7 FF 3C 00 86 C0 
47606.696200 1 5601067x Rx d 8 57 03 B8 D7 D0 FC 79 CE 
47606.699200 1 5601065x Rx d 8 EA 16 C2 DB 47 2A AD 15 
47606.699200 1 5601066x Rx d 8 D6 28 7C E9 D6 1B DC 21 
47606.700200 1 5601069x Rx d 8 CC F7 F7 FF 3B 00 86 C0 
47606.701200 1 5601067x Rx d 8 57 03 B8 D7 D0 FC 79 CE 
47606.704200 1 5601065x Rx d 8 E9 16 C2 DB 48 2A AD 15 
47606.704200 1 5601066x Rx d 8 D6 28 7C E9 D6 1B DB 21 
47606.705200 1 5601069x Rx d 8 CC F7 F7 FF 3B 00 86 C0 
47606.706200 1 5601067x Rx d 8 56 03 B9 D7 D1 FC 79 CE 
47606.709200 1 5601065x Rx d 8 E9 16 C1 DB 48 2A AC 15 
47606.709200 1 5601066x Rx d 8 D6 28 7C E9 D6 1B DC 21 
47606.710200 1 5601069x Rx d 8 CC F7 F7 FF 3A 00 87 C0 
47606.711200 1 5601067x Rx d 8 56 03 B9 D7 D1 FC 79 CE 
47606.714200 1 5601065x Rx d 8 E8 16 C1 DB 48 2A AC 15 
47606.714200 1 5601066x Rx d 8 D6 28 7C E9 D7 1B DB 21 
47606.715200 1 5601069x Rx d 8 CB F7 F7 FF 3A 00 87 C0 
47606.716200 1 5601067x Rx d 8 56 03 B9 D7 D1 FC 79 CE 
47606.719200 1 5601065x Rx d 8 E7 16 C1 DB 48 2A AB 15 
47606.719200 1 5601066x Rx d 8 D5 28 7C E9 D7 1B DB 21 
47606.720200 1 5601069x Rx d 8 CB F7 F7 FF 39 00 87 C0 
47606.721200 1 5601067x Rx d 8 56 03 B9 D7 D1 FC 78 CE 
47606.724200 1 5601065x Rx d 8 E7 16 C1 DB 49 2A AB 15 
47606.724200 1 5601066x Rx d 8 D5 28 7C E9 D7 1B DB 21 
47606.725200 1 5601069x Rx d 8 CB F7 F6 FF 39 00 87 C0 
47606.726200 1 5601067x Rx d 8 56 03 B9 D7 D1 FC 78 CE 
47606.729200 1 5601065x Rx d 8 E7 16 C0 DB 49 2A AA 15 
47606.729200 1 5601066x Rx d 8 D5 28 7C E9 D7 1B DB 21 
47606.730200 1 5601069x Rx d 8 CB F7 F6 FF 39 00 87 C0 
47606.731200 1 5601067x Rx d 8 56 03 BA D7 D1 FC 78 CE 
47606.734200 1 5601065x Rx d 8 E6 16 C0 DB 49 2A AA 15 
47606.735200 1 5601066x Rx d 8 DF 28 75 E9 CB 1B D7 21 
47606.735200 1 5601069x Rx d 8 CB F7 F6 FF 38 00 87 C0 
47606.736200 1 5601067x Rx d 8 55 03 BA D7 D2 FC 78 CE 
47606.739200 1 5601065x Rx d 8 E6 16 C0 DB 49 2A A9 15 
47606.740200 1 5601066x Rx d 8 DE 28 75 E9 CB 1B D7 21 
47606.740200 1 5601069x Rx d 8 CB F7 F6 FF 38 00 87 C0 
47606.741200 1 5601067x Rx d 8 55 03 BA D7 D2 FC 78 CE 
47606.744200 1 5601065x Rx d 8 E6 16 C0 DB 4A 2A A9 15 
47606.745200 1 2001065x Rx d 8 AA C1 77 90 A6 04 DB 7F 
47606.745200 1 5601066x Rx d 8 DE 28 75 E9 CB 1B D6 21 
47606.746200 1 2001066x Rx d 8 B2 2F 59 89 01 03 EA 7F 
47606.746200 1 5601069x Rx d 8 CB F7 F5 FF 38 00 87 C0 
47606.747200 1 2001069x Rx d 8 02 FF 19 00 00 80 F3 7F 
47606.747200 1 5601067x Rx d 8 55 03 BA D7 D2 FC 78 CE 
47606.748200 1 2001067x Rx d 8 53 16 FF 7D 51 04 F8 7F 
47606.749200 1 5601065x Rx d 8 FC 16 C7 DB 3D 2A B6 15 
47606.750200 1 5601066x Rx d 8 DE 28 75 E9 CB 1B D6 21 
47606.750200 1 5601069x Rx d 8 CA F7 F5 FF 38 00 87 C0 
47606.752200 1 5601067x Rx d 8 55 03 BA D7 D2 FC 77 CE 
47606.754200 1 5601065x Rx d 8 FC 16 C7 DB 3D 2A B6 15 
47606.755200 1 5601066x Rx d 8 DE 28 74 E9 CB 1B D6 21 
47606.755200 1 5601069x Rx d 8 CA F7 F5 FF 37 00 87 C0 
47606.757200 1 5601067x Rx d 8 55 03 BA D7 D2 FC 77 CE 
47606.759200 1 5601065x Rx d 8 FB 16 C7 DB 3E 2A B5 15 
47606.760200 1 5601066x Rx d 8 DE 28 74 E9 CB 1B D6 21 
47606.760200 1 5601069x Rx d 8 CA F7 F5 FF 37 00 87 C0 
47606.762200 1 5601067x Rx d 8 55 03 BB D7 D2 FC 77 CE 
47606.764200 1 5601065x Rx d 8 FB 16 C7 DB 3E 2A B5 15 
47606.765200 1 5601066x Rx d 8 DD 28 74 E9 CB 1B D6 21 
47606.765200 1 5601069x Rx d 8 CA F7 F4 FF 36 00 87 C0 
47606.767200 1 5601067x Rx d 8 54 03 BB D7 D2 FC 77 CE 
47606.769200 1 5601065x Rx d 8 FB 16 C7 DB 3E 2A B5 15 
47606.770200 1 5601066x Rx d 8 DD 28 74 E9 CC 1B D6 21 
47606.770200 1 5601069x Rx d 8 C9 F7 F4 FF 36 00 87 C0 
47606.772200 1 5601067x Rx d 8 54 03 BB D7 D2 FC 77 CE 
47606.774200 1 5601065x Rx d 8 FA 16 C6 DB 3F 2A B4 15 
47606.775200 1 5601066x Rx d 8 DD 28 74 E9 CC 1B D6 21 
47606.776200 1 5601069x Rx d 8 C9 F7 F4 FF 35 00 87 C0 
47606.777200 1 5601067x Rx d 8 54 03 BB D7 D2 FC 77 CE 
47606.780200 1 5601065x Rx d 8 F9 16 C6 DB 3F 2A B4 15 
47606.780200 1 5601066x Rx d 8 DD 28 74 E9 CC 1B D7 21 
47606.781200 1 5601069x Rx d 8 C9 F7 F4 FF 35 00 87 C0 
47606.782200 1 5601067x Rx d 8 54 03 BB D7 D2 FC 77 CE 
47606.785200 1 5601065x Rx d 8 F9 16 C6 DB 3F 2A B3 15 
47606.785200 1 5601066x Rx d 8 DC 28 74 E9 CC 1B D6 21 
47606.786200 1 5601069x Rx d 8 C9 F7 F4 FF 34 00 87 C0 
47606.787200 1 5601067x Rx d 8 54 03 BC D7 D2 FC 76 CE 
47606.790200 1 5601065x Rx d 8 F8 16 C6 DB 40 2A B3 15 
47606.790200 1 5601066x Rx d 8 DC 28 74 E9 CC 1B D6 21 
47606.791200 1 5601069x Rx d 8 C9 F7 F4 FF 34 00 87 C0 
47606.792200 1 5601067x Rx d 8 53 03 BC D7 D2 FC 76 CE 
47606.795200 1 5601065x Rx d 8 F8 16 C6 DB 40 2A B2 15 
47606.795200 1 5601066x Rx d 8 DC 28 74 E9 CD 1B D6 21 
47606.796200 1 5601069x Rx d 8 C9 F7 F4 FF 33 00 87 C0 
47606.797200 1 5601067x Rx d 8 53 03 BC D7 D2 FC 76 CE 
47606.800200 1 5601065x Rx d 8 F7 16 C5 DB 41 2A B2 15 
47606.800200 1 5601066x Rx d 8 DC 28 73 E9 CD 1B D6 21 
47606.801200 1 5601069x Rx d 8 C9 F7 F4 FF 33 00 87 C0 
47606.802200 1 5601067x Rx d 8 53 03 BD D7 D2 FC 75 CE 
47606.805200 1 5601065x Rx d 8 F7 16 C5 DB 41 2A B2 15 
47606.805200 1 5601066x Rx d 8 DC 28 73 E9 CD 1B D6 21 
47606.806200 1 5601069x Rx d 8 C9 F7 F4 FF 32 00 87 C0 
47606.807200 1 5601067x Rx d 8 52 03 BD D7 D2 FC 75 CE 
47606.810200 1 5601065x Rx d 8 F6 16 C5 DB 41 2A B2 15 
47606.811200 1 5601066x Rx d 8 DB 28 73 E9 CE 1B D6 21 
47606.811200 1 5601069x Rx d 8 C8 F7 F4 FF 32 00 87 C0 
47606.812200 1 5601067x Rx d 8 52 03 BD D7 D2 FC 75 CE 
47606.815200 1 5601065x Rx d 8 F6 16 C5 DB 41 2A B2 15 
47606.816200 1 5601066x Rx d 8 DB 28 73 E9 CE 1B D6 21 
47606.816200 1 5601069x Rx d 8 C8 F7 F4 FF 31 00 87 C0 
47606.817200 1 5601067x Rx d 8 52 03 BD D7 D2 FC 75 CE 
47606.820200 1 5601065x Rx d 8 F6 16 C5 DB 41 2A B2 15 
47606.821200 1 5601066x Rx d 8 DB 28 72 E9 CE 1B D6 21 
47606.821200 1 5601069x Rx d 8 C8 F7 F4 FF 31 00 87 C0 
47606.822200 1 5601067x Rx d 8 52 03 BD D7 D2 FC 75 CE 
47606.825200 1 5601065x Rx d 8 F5 16 C5 DB 41 2A B1 15 
47606.826200 1 5601066x Rx d 8 DA 28 72 E9 CF 1B D6 21 
47606.826200 1 5601069x Rx d 8 C8 F7 F4 FF 30 00 87 C0 
47606.828200 1 5601067x Rx d 8 51 03 BD D7 D2 FC 75 CE 
47606.830200 1 5601065x Rx d 8 F5 16 C5 DB 42 2A B2 15 
47606.831200 1 5601066x Rx d 8 DA 28 73 E9 CF 1B D6 21 
47606.831200 1 5601069x Rx d 8 C7 F7 F4 FF 30 00 87 C0 
47606.833200 1 5601067x Rx d 8 51 03 BD D7 D2 FC 75 CE 
47606.835200 1 5601065x Rx d 8 F5 16 C5 DB 42 2A B1 15 
47606.836200 1 5601066x Rx d 8 DA 28 73 E9 CF 1B D6 21 
47606.836200 1 5601069x Rx d 8 C7 F7 F4 FF 30 00 87 C0 
47606.838200 1 5601067x Rx d 8 51 03 BD D7 D1 FC 75 CE 
47606.840200 1 5601065x Rx d 8 F5 16 C5 DB 42 2A B1 15 
47606.841200 1 5601066x Rx d 8 DA 28 72 E9 CF 1B D6 21 
47606.841200 1 5601069x Rx d 8 C7 F7 F4 FF 2F 00 87 C0 
47606.843200 1 5601067x Rx d 8 51 03 BE D7 D2 FC 75 CE 
47606.845200 1 5601065x Rx d 8 F4 16 C5 DB 42 2A B0 15 
47606.846200 1 5601066x Rx d 8 DA 28 72 E9 D0 1B D6 21 
47606.847200 1 5601069x Rx d 8 C7 F7 F3 FF 2F 00 87 C0 
47606.848200 1 5601067x Rx d 8 51 03 BE D7 D2 FC 74 CE 
47606.851200 1 5601065x Rx d 8 F4 16 C4 DB 42 2A B0 15 
47606.851200 1 5601066x Rx d 8 DA 28 72 E9 D0 1B D6 21 
47606.852200 1 5601069x Rx d 8 C6 F7 F3 FF 2F 00 87 C0 
47606.853200 1 5601067x Rx d 8 50 03 BE D7 D2 FC 74 CE 
47606.856200 1 5601065x Rx d 8 F3 16 C4 DB 43 2A B0 15 
47606.856200 1 5601066x Rx d 8 D9 28 72 E9 D0 1B D5 21 
47606.857200 1 5601069x Rx d 8 C6 F7 F3 FF 2E 00 87 C0 
47606.858200 1 5601067x Rx d 8 50 03 BE D7 D2 FC 74 CE 
47606.861200 1 5601065x Rx d 8 F3 16 C4 DB 43 2A B0 15 
47606.861200 1 5601066x Rx d 8 D9 28 71 E9 D0 1B D5 21 
47606.862200 1 5601069x Rx d 8 C6 F7 F3 FF 2E 00 87 C0 
47606.863200 1 5601067x Rx d 8 50 03 BE D7 D2 FC 74 CE 
47606.866200 1 5601065x Rx d 8 F2 16 C4 DB 43 2A B0 15 
47606.866200 1 5601066x Rx d 8 D9 28 71 E9 D0 1B D5 21 
47606.867200 1 5601069x Rx d 8 C6 F7 F2 FF 2D 00 87 C0 
47606.868200 1 5601067x Rx d 8 50 03 BE D7 D2 FC 74 CE 
47606.871200 1 5601065x Rx d 8 F2 16 C3 DB 43 2A AF 15 
47606.871200 1 5601066x Rx d 8 D9 28 71 E9 D0 1B D5 21 
47606.872200 1 5601069x Rx d 8 C5 F7 F2 FF 2D 00 87 C0 
47606.873200 1 5601067x Rx d 8 50 03 BE D7 D2 FC 74 CE 
47606.876200 1 5601065x Rx d 8 F2 16 C4 DB 43 2A AF 15 
47606.876200 1 5601066x Rx d 8 D9 28 71 E9 D1 1B D4 21 
47606.877200 1 5601069x Rx d 8 C5 F7 F2 FF 2C 00 87 C0 
47606.878200 1 5601067x Rx d 8 50 03 BE D7 D2 FC 74 CE 
47606.881200 1 5601065x Rx d 8 F2 16 C3 DB 43 2A AE 15 
47606.881200 1 5601066x Rx d 8 D9 28 71 E9 D1 1B D5 21 
47606.882200 1 5601069x Rx d 8 C5 F7 F2 FF 2C 00 87 C0 
47606.883200 1 5601067x Rx d 8 50 03 BE D7 D2 FC 74 CE 
47606.886200 1 5601065x Rx d 8 F1 16 C3 DB 44 2A AE 15 
47606.886200 1 5601066x Rx d 8 D9 28 71 E9 D1 1B D5 21 
47606.887200 1 5601069x Rx d 8 C5 F7 F2 FF 2B 00 87 C0 
47606.888200 1 5601067x Rx d 8 50 03 BE D7 D2 FC 74 CE 
47606.891200 1 5601065x Rx d 8 F1 16 C3 DB 44 2A AE 15 
47606.891200 1 5601066x Rx d 8 D9 28 71 E9 D2 1B D5 21 
47606.892200 1 5601069x Rx d 8 C5 F7 F2 FF 2B 00 87 C0 
47606.893200 1 5601067x Rx d 8 50 03 BF D7 D2 FC 74 CE 
47606.896200 1 5601065x Rx d 8 F1 16 C3 DB 44 2A AE 15 
47606.897200 1 5601066x Rx d 8 D9 28 71 E9 D2 1B D5 21 
47606.897200 1 5601069x Rx d 8 C5 F7 F2 FF 2A 00 87 C0 
47606.898200 1 5601067x Rx d 8 50 03 BF D7 D2 FC 73 CE 
47606.901200 1 5601065x Rx d 8 F1 16 C3 DB 45 2A AD 15 
47606.902200 1 5601066x Rx d 8 D9 28 71 E9 D2 1B D4 21 
47606.902200 1 5601069x Rx d 8 C5 F7 F2 FF 2A 00 87 C0 
47606.904200 1 5601067x Rx d 8 4F 03 BF D7 D3 FC 73 CE 
47606.906200 1 5601065x Rx d 8 F0 16 C3 DB 45 2A AD 15 
47606.907200 1 5601066x Rx d 8 D8 28 71 E9 D2 1B D4 21 
47606.907200 1 5601069x Rx d 8 C4 F7 F2 FF 2A 00 87 C0 
47606.909200 1 5601067x Rx d 8 4F 03 BF D7 D3 FC 73 CE 
47606.911200 1 5601065x Rx d 8 F0 16 C3 DB 45 2A AD 15 
47606.912200 1 5601066x Rx d 8 D8 28 71 E9 D2 1B D4 21 
47606.912200 1 5601069x Rx d 8 C4 F7 F2 FF 2A 00 87 C0 
47606.914200 1 5601067x Rx d 8 4F 03 BF D7 D3 FC 73 CE 
47606.916200 1 5601065x Rx d 8 F0 16 C3 DB 45 2A AD 15 
47606.917200 1 5601066x Rx d 8 D8 28 70 E9 D3 1B D4 21 
47606.917200 1 5601069x Rx d 8 C4 F7 F1 FF 29 00 87 C0 
47606.919200 1 5601067x Rx d 8 4F 03 C0 D7 D2 FC 72 CE 
47606.921200 1 5601065x Rx d 8 F0 16 C3 DB 46 2A AD 15 
47606.922200 1 5601066x Rx d 8 D8 28 70 E9 D3 1B D4 21 
47606.922200 1 5601069x Rx d 8 C4 F7 F1 FF 29 00 87 C0 
47606.924200 1 5601067x Rx d 8 4F 03 C0 D7 D2 FC 72 CE 
47606.926200 1 5601065x Rx d 8 EF 16 C4 DB 46 2A AD 15 
47606.927200 1 5601066x Rx d 8 D7 28 70 E9 D3 1B D4 21 
47606.927200 1 5601069x Rx d 8 C3 F7 F1 FF 29 00 87 C0 
47606.929200 1 5601067x Rx d 8 4F 03 C0 D7 D2 FC 72 CE 
47606.932200 1 5601065x Rx d 8 EF 16 C3 DB 46 2A AC 15 
47606.932200 1 5601066x Rx d 8 D7 28 70 E9 D3 1B D4 21 
47606.933200 1 5601069x Rx d 8 C3 F7 F1 FF 28 00 87 C0 
47606.934200 1 5601067x Rx d 8 4F 03 C0 D7 D2 FC 72 CE 
47606.937200 1 5601065x Rx d 8 EF 16 C3 DB 47 2A AC 15 
47606.937200 1 5601066x Rx d 8 D7 28 70 E9 D3 1B D4 21 
47606.938200 1 5601069x Rx d 8 C3 F7 F0 FF 28 00 88 C0 
47606.939200 1 5601067x Rx d 8 4E 03 C0 D7 D2 FC 72 CE 
47606.942200 1 5601065x Rx d 8 EE 16 C3 DB 47 2A AB 15 
47606.942200 1 5601066x Rx d 8 D7 28 70 E9 D4 1B D4 21 
47606.943200 1 5601069x Rx d 8 C3 F7 F0 FF 27 00 88 C0 
47606.944200 1 5601067x Rx d 8 4E 03 C0 D7 D2 FC 72 CE 
47606.947200 1 5601065x Rx d 8 EE 16 C3 DB 47 2A AB 15 
47606.947200 1 5601066x Rx d 8 D7 28 70 E9 D4 1B D4 21 
47606.948200 1 5601069x Rx d 8 C2 F7 F0 FF 27 00 88 C0 
47606.949200 1 5601067x Rx d 8 4E 03 C1 D7 D2 FC 72 CE 
47606.952200 1 5601065x Rx d 8 EE 16 C3 DB 48 2A AB 15 
47606.952200 1 5601066x Rx d 8 D7 28 70 E9 D4 1B D5 21 
47606.953200 1 5601069x Rx d 8 C2 F7 F0 FF 26 00 88 C0 
47606.954200 1 5601067x Rx d 8 4E 03 C1 D7 D3 FC 71 CE 
47606.957200 1 5601065x Rx d 8 ED 16 C3 DB 48 2A AB 15 
47606.957200 1 5601066x Rx d 8 D7 28 70 E9 D5 1B D4 21 
47606.958200 1 5601069x Rx d 8 C2 F7 F0 FF 26 00 88 C0 
47606.959200 1 5601067x Rx d 8 52 03 AE D7 D8 FC 81 CE 
47606.962200 1 5601065x Rx d 8 ED 16 C3 DB 48 2A AA 15 
47606.962200 1 5601066x Rx d 8 D6 28 70 E9 D5 1B D4 21 
47606.963200 1 5601069x Rx d 8 C2 F7 F0 FF 26 00 88 C0 
47606.964200 1 5601067x Rx d 8 52 03 AE D7 D8 FC 81 CE 
47606.967200 1 5601065x Rx d 8 ED 16 C3 DB 49 2A AA 15 
47606.968200 1 5601066x Rx d 8 D6 28 70 E9 D5 1B D4 21 
47606.968200 1 5601069x Rx d 8 C1 F7 F0 FF 25 00 88 C0 
47606.969200 1 5601067x Rx d 8 52 03 AE D7 D8 FC 81 CE 
47606.972200 1 5601065x Rx d 8 EC 16 C3 DB 49 2A AA 15 
47606.973200 1 5601066x Rx d 8 D6 28 70 E9 D5 1B D4 21 
47606.973200 1 5601069x Rx d 8 C1 F7 EF FF 25 00 88 C0 
47606.974200 1 5601067x Rx d 8 52 03 AE D7 D8 FC 81 CE 
47606.977200 1 5601065x Rx d 8 EC 16 C2 DB 49 2A A9 15 
47606.978200 1 5601066x Rx d 8 D5 28 70 E9 D5 1B D4 21 
47606.978200 1 5601069x Rx d 8 C1 F7 EF FF 25 00 88 C0 
47606.979200 1 5601067x Rx d 8 51 03 AE D7 D9 FC 80 CE 
47606.982200 1 5601065x Rx d 8 04 17 C8 DB 3B 2A B5 15 
47606.983200 1 5601066x Rx d 8 D5 28 70 E9 D6 1B D4 21 
47606.983200 1 5601069x Rx d 8 C1 F7 EF FF 24 00 88 C0 
47606.985200 1 5601067x Rx d 8 51 03 AE D7 D9 FC 80 CE 
47606.987200 1 5601065x Rx d 8 03 17 C8 DB 3B 2A B5 15 
47606.988200 1 5601066x Rx d 8 D5 28 70 E9 D6 1B D4 21 
47606.988200 1 5601069x Rx d 8 C0 F7 EF FF 24 00 88 C0 
47606.990200 1 5601067x Rx d 8 51 03 AF D7 D9 FC 80 CE 
47606.992200 1 5601065x Rx d 8 03 17 C8 DB 3B 2A B4 15 
47606.993200 1 5601066x Rx d 8 D5 28 70 E9 D6 1B D4 21 
47606.993200 1 5601069x Rx d 8 C0 F7 EF FF 23 00 88 C0 
47606.995200 1 5601067x Rx d 8 51 03 AF D7 D9 FC 80 CE 
47606.997200 1 5601065x Rx d 8 03 17 C8 DB 3C 2A B4 15 
47606.998200 1 2001065x Rx d 8 AF C1 74 90 A6 04 DA 7F 
47606.998200 1 5601066x Rx d 8 D5 28 70 E9 D7 1B D4 21 
47606.999200 1 2001066x Rx d 8 B7 2F 56 89 FC 02 ED 7F 
47607.000200 1 5601069x Rx d 8 C0 F7 EF FF 23 00 88 C0 
47607.000200 1 2001069x Rx d 8 FF FE 17 00 00 80 F5 7F 
47607.001200 1 5601067x Rx d 8 51 03 AF D7 D9 FC 80 CE 
47607.001200 1 2001067x Rx d 8 54 16 FF 7D 59 04 F8 7F 
47607.003200 1 5601065x Rx d 8 F2 16 CA DB 46 2A B7 15 
47607.003200 1 5601066x Rx d 8 D5 28 70 E9 D7 1B D4 21 
47607.004200 1 5601069x Rx d 8 C0 F7 EF FF 23 00 88 C0 
47607.005200 1 5601067x Rx d 8 50 03 AF D7 D9 FC 80 CE 
47607.007200 1 5601065x Rx d 8 F1 16 CA DB 46 2A B7 15 
47607.008200 1 5601066x Rx d 8 D5 28 70 E9 D7 1B D4 21 
47607.009200 1 5601069x Rx d 8 C0 F7 EF FF 22 00 88 C0 
47607.010200 1 5601067x Rx d 8 50 03 AF D7 DA FC 7F CE 
47607.013200 1 5601065x Rx d 8 F1 16 CA DB 46 2A B6 15 
47607.013200 1 5601066x Rx d 8 D5 28 70 E9 D7 1B D4 21 
47607.014200 1 5601069x Rx d 8 C0 F7 EF FF 22 00 88 C0 
47607.015200 1 5601067x Rx d 8 50 03 AF D7 DA FC 7F CE 
47607.018200 1 5601065x Rx d 8 F1 16 CA DB 46 2A B6 15 
47607.018200 1 5601066x Rx d 8 D5 28 70 E9 D7 1B D4 21 
47607.019200 1 5601069x Rx d 8 BF F7 EF FF 22 00 88 C0 
47607.020200 1 5601067x Rx d 8 50 03 B0 D7 DA FC 7F CE 
47607.023200 1 5601065x Rx d 8 F0 16 CA DB 46 2A B6 15 
47607.023200 1 5601066x Rx d 8 D4 28 6F E9 D7 1B D4 21 
47607.024200 1 5601069x Rx d 8 BF F7 EF FF 21 00 88 C0 
47607.025200 1 5601067x Rx d 8 50 03 B0 D7 DA FC 7F CE 
47607.028200 1 5601065x Rx d 8 F0 16 CA DB 46 2A B6 15 
47607.028200 1 5601066x Rx d 8 D4 28 6F E9 D8 1B D4 21 
47607.029200 1 5601069x Rx d 8 BF F7 EF FF 21 00 88 C0 
47607.030200 1 5601067x Rx d 8 50 03 B0 D7 DA FC 7F CE 
47607.033200 1 5601065x Rx d 8 EF 16 CA DB 47 2A B6 15 
47607.033200 1 5601066x Rx d 8 D4 28 6F E9 D8 1B D4 21 
47607.034200 1 5601069x Rx d 8 BE F7 FB FF 37 00 88 C0 
47607.035200 1 5601067x Rx d 8 4F 03 B0 D7 DB FC 7F CE 
47607.038200 1 5601065x Rx d 8 EF 16 CA DB 47 2A B6 15 
47607.038200 1 5601066x Rx d 8 D3 28 6F E9 D8 1B D4 21 
47607.039200 1 5601069x Rx d 8 BE F7 FA FF 36 00 88 C0 
47607.040200 1 5601067x Rx d 8 4F 03 B0 D7 DB FC 7F CE 
47607.043200 1 5601065x Rx d 8 EF 16 CA DB 47 2A B6 15 
47607.043200 1 5601066x Rx d 8 D3 28 6F E9 D8 1B D4 21 
47607.044200 1 5601069x Rx d 8 BE F7 FA FF 36 00 88 C0 
47607.045200 1 5601067x Rx d 8 4F 03 B0 D7 DB FC 7F CE 
47607.048200 1 5601065x Rx d 8 EE 16 CA DB 47 2A B5 15 
47607.049200 1 5601066x Rx d 8 D3 28 6F E9 D9 1B D4 21 
47607.049200 1 5601069x Rx d 8 BE F7 F9 FF 35 00 88 C0 
47607.050200 1 5601067x Rx d 8 4F 03 B0 D7 DB FC 7F CE 
47607.053200 1 5601065x Rx d 8 EE 16 C9 DB 47 2A B5 15 
47607.054200 1 5601066x Rx d 8 D3 28 6F E9 D9 1B D4 21 
47607.054200 1 5601069x Rx d 8 BD F7 F9 FF 35 00 88 C0 
47607.055200 1 5601067x Rx d 8 4F 03 B0 D7 DB FC 7F CE 
47607.058200 1 5601065x Rx d 8 EE 16 C9 DB 47 2A B4 15 
47607.059200 1 5601066x Rx d 8 D3 28 6F E9 D9 1B D4 21 
47607.059200 1 5601069x Rx d 8 BD F7 F9 FF 34 00 88 C0 
47607.061200 1 5601067x Rx d 8 4F 03 B1 D7 DB FC 7F CE 
47607.063200 1 5601065x Rx d 8 EE 16 C9 DB 48 2A B4 15 
47607.064200 1 5601066x Rx d 8 D3 28 6F E9 D9 1B D4 21 
47607.064200 1 5601069x Rx d 8 BD F7 F9 FF 34 00 88 C0 
47607.066200 1 5601067x Rx d 8 4F 03 B0 D7 DB FC 7F CE 
47607.068200 1 5601065x Rx d 8 ED 16 C9 DB 48 2A B4 15 
47607.069200 1 5601066x Rx d 8 D3 28 6F E9 DA 1B D4 21 
47607.069200 1 5601069x Rx d 8 BD F7 F9 FF 33 00 88 C0 
47607.071200 1 5601067x Rx d 8 4F 03 B0 D7 DB FC 7F CE 
47607.073200 1 5601065x Rx d 8 ED 16 C9 DB 48 2A B3 15 
47607.074200 1 5601066x Rx d 8 D2 28 6F E9 DA 1B D4 21 
47607.074200 1 5601069x Rx d 8 BD F7 F8 FF 33 00 88 C0 
47607.076200 1 5601067x Rx d 8 4E 03 B1 D7 DB FC 7E CE 
47607.078200 1 5601065x Rx d 8 ED 16 C9 DB 49 2A B3 15 
47607.079200 1 5601066x Rx d 8 D2 28 6F E9 DB 1B D4 21 
47607.080200 1 5601069x Rx d 8 BD F7 F8 FF 32 00 88 C0 
47607.081200 1 5601067x Rx d 8 4E 03 B1 D7 DB FC 7E CE 
47607.083200 1 5601065x Rx d 8 EC 16 C9 DB 49 2A B3 15 
47607.084200 1 5601066x Rx d 8 D2 28 6F E9 DB 1B D4 21 
47607.085200 1 5601069x Rx d 8 BC F7 F8 FF 32 00 88 C0 
47607.086200 1 5601067x Rx d 8 4E 03 B1 D7 DB FC 7E CE 
47607.089200 1 5601065x Rx d 8 EC 16 C9 DB 49 2A B3 15 
47607.089200 1 5601066x Rx d 8 D2 28 6F E9 DB 1B D4 21 
47607.090200 1 5601069x Rx d 8 BC F7 F8 FF 31 00 88 C0 
47607.091200 1 5601067x Rx d 8 4E 03 B1 D7 DB FC 7E CE 
47607.094200 1 5601065x Rx d 8 EC 16 C9 DB 4A 2A B2 15 
47607.094200 1 5601066x Rx d 8 D2 28 6F E9 DB 1B D3 21 
47607.095200 1 5601069x Rx d 8 BC F7 F8 FF 31 00 88 C0 
47607.096200 1 5601067x Rx d 8 4E 03 B1 D7 DB FC 7E CE 
47607.099200 1 5601065x Rx d 8 EB 16 C9 DB 4A 2A B2 15 
47607.099200 1 5601066x Rx d 8 D2 28 6F E9 DB 1B D3 21 
47607.100200 1 5601069x Rx d 8 BC F7 F8 FF 30 00 88 C0 
47607.101200 1 5601067x Rx d 8 4E 03 B1 D7 DB FC 7E CE 
47607.104200 1 5601065x Rx d 8 EB 16 C9 DB 4A 2A B2 15 
47607.104200 1 5601066x Rx d 8 D2 28 6F E9 DC 1B D3 21 
47607.105200 1 5601069x Rx d 8 BB F7 F8 FF 30 00 88 C0 
47607.106200 1 5601067x Rx d 8 4E 03 B1 D7 DB FC 7E CE 
47607.109200 1 5601065x Rx d 8 EB 16 C9 DB 4B 2A B2 15 
47607.109200 1 5601066x Rx d 8 D2 28 6F E9 DC 1B D3 21 
47607.110200 1 5601069x Rx d 8 BB F7 F7 FF 2F 00 88 C0 
47607.111200 1 5601067x Rx d 8 4D 03 B1 D7 DB FC 7E CE 
47607.114200 1 5601065x Rx d 8 EA 16 C9 DB 4B 2A B1 15 
47607.114200 1 5601066x Rx d 8 D2 28 6F E9 DC 1B D3 21 
47607.115200 1 5601069x Rx d 8 BB F7 F7 FF 2F 00 88 C0 
47607.116200 1 5601067x Rx d 8 4D 03 B1 D7 DB FC 7E CE 
47607.119200 1 5601065x Rx d 8 EA 16 C9 DB 4B 2A B1 15 
47607.119200 1 5601066x Rx d 8 D2 28 6F E9 DD 1B D3 21 
47607.120200 1 5601069x Rx d 8 BB F7 F7 FF 2F 00 88 C0 
47607.121200 1 5601067x Rx d 8 4D 03 B1 D7 DB FC 7E CE 
47607.124200 1 5601065x Rx d 8 EA 16 C9 DB 4C 2A B0 15 
47607.124200 1 5601066x Rx d 8 D2 28 6F E9 DD 1B D3 21 
47607.125200 1 5601069x Rx d 8 BB F7 F7 FF 2E 00 89 C0 
47607.126200 1 5601067x Rx d 8 4C 03 B1 D7 DB FC 7E CE 
47607.129200 1 5601065x Rx d 8 E9 16 C9 DB 4C 2A B0 15 
47607.130200 1 5601066x Rx d 8 D2 28 70 E9 DD 1B D3 21 
47607.130200 1 5601069x Rx d 8 BB F7 F6 FF 2E 00 89 C0 
47607.131200 1 5601067x Rx d 8 4C 03 B1 D7 DB FC 7E CE 
47607.134200 1 5601065x Rx d 8 E9 16 C9 DB 4C 2A B0 15 
47607.135200 1 5601069x Rx d 8 BB F7 F6 FF 2D 00 89 C0 
47607.135200 1 5601066x Rx d 8 DF 28 7F E9 C9 1B DD 21 
47607.137200 1 5601067x Rx d 8 4C 03 B1 D7 DB FC 7E CE 
47607.139200 1 5601065x Rx d 8 E8 16 C9 DB 4D 2A AF 15 
47607.140200 1 5601066x Rx d 8 DF 28 7F E9 C9 1B DD 21 
47607.140200 1 5601069x Rx d 8 BB F7 F6 FF 2D 00 89 C0 
47607.142200 1 5601067x Rx d 8 4C 03 B2 D7 DB FC 7D CE 
47607.144200 1 5601065x Rx d 8 E8 16 C9 DB 4D 2A AF 15 
47607.145200 1 5601066x Rx d 8 DF 28 7F E9 CA 1B DD 21 
47607.145200 1 5601069x Rx d 8 BB F7 F6 FF 2C 00 89 C0 
47607.147200 1 5601067x Rx d 8 4C 03 B2 D7 DC FC 7D CE 
47607.149200 1 5601065x Rx d 8 E8 16 C9 DB 4D 2A AF 15 
47607.150200 1 5601066x Rx d 8 DF 28 7F E9 CA 1B DD 21 
47607.150200 1 5601069x Rx d 8 BB F7 F6 FF 2C 00 89 C0 
47607.152200 1 5601067x Rx d 8 4C 03 B2 D7 DC FC 7D CE 
47607.154200 1 5601065x Rx d 8 E7 16 C9 DB 4D 2A AF 15 
47607.155200 1 5601066x Rx d 8 DE 28 7F E9 CA 1B DD 21 
47607.155200 1 5601069x Rx d 8 BB F7 F6 FF 2B 00 89 C0 
47607.157200 1 5601067x Rx d 8 4C 03 B2 D7 DC FC 7D CE 
47607.159200 1 5601065x Rx d 8 E7 16 C9 DB 4E 2A AF 15 
47607.160200 1 5601066x Rx d 8 DE 28 7F E9 CB 1B DD 21 
47607.161200 1 5601069x Rx d 8 BB F7 F5 FF 2B 00 89 C0 
47607.162200 1 5601067x Rx d 8 4C 03 B2 D7 DC FC 7D CE 
47607.165200 1 5601065x Rx d 8 E7 16 C9 DB 4E 2A AE 15 
47607.165200 1 5601066x Rx d 8 DE 28 7E E9 CB 1B DD 21 
47607.166200 1 5601069x Rx d 8 BB F7 F5 FF 2A 00 89 C0 
47607.167200 1 5601067x Rx d 8 4C 03 B2 D7 DC FC 7D CE 
47607.170200 1 5601065x Rx d 8 E6 16 C9 DB 4E 2A AE 15 
47607.170200 1 5601066x Rx d 8 DE 28 7E E9 CB 1B DD 21 
47607.171200 1 5601069x Rx d 8 BB F7 F5 FF 2A 00 89 C0 
47607.172200 1 5601067x Rx d 8 4B 03 B2 D7 DC FC 7D CE 
47607.175200 1 5601065x Rx d 8 E6 16 C8 DB 4F 2A AD 15 
47607.175200 1 5601066x Rx d 8 DE 28 7E E9 CC 1B DD 21 
47607.176200 1 5601069x Rx d 8 BA F7 F5 FF 29 00 89 C0 
47607.177200 1 5601067x Rx d 8 4B 03 B2 D7 DC FC 7D CE 
47607.180200 1 5601065x Rx d 8 E6 16 C8 DB 4F 2A AD 15 
47607.180200 1 5601066x Rx d 8 DD 28 7E E9 CC 1B DD 21 
47607.181200 1 5601069x Rx d 8 BA F7 F5 FF 29 00 89 C0 
47607.182200 1 5601067x Rx d 8 4B 03 B2 D7 DC FC 7D CE 
47607.185200 1 5601065x Rx d 8 FD 16 CB DB 42 2A B4 15 
47607.185200 1 5601066x Rx d 8 DD 28 7E E9 CC 1B DD 21 
47607.186200 1 5601069x Rx d 8 BA F7 F5 FF 28 00 89 C0 
47607.187200 1 5601067x Rx d 8 4A 03 B2 D7 DB FC 7D CE 
47607.190200 1 5601065x Rx d 8 FD 16 CB DB 42 2A B3 15 
47607.190200 1 5601066x Rx d 8 DD 28 7E E9 CC 1B DD 21 
47607.191200 1 5601069x Rx d 8 BA F7 F5 FF 28 00 89 C0 
47607.192200 1 5601067x Rx d 8 4A 03 B2 D7 DB FC 7D CE 
47607.195200 1 5601065x Rx d 8 FC 16 CB DB 42 2A B3 15 
47607.195200 1 5601066x Rx d 8 DD 28 7E E9 CC 1B DD 21 
47607.196200 1 5601069x Rx d 8 B9 F7 F5 FF 28 00 89 C0 
47607.197200 1 5601067x Rx d 8 4A 03 B2 D7 DB FC 7D CE 
47607.200200 1 5601065x Rx d 8 FC 16 CA DB 42 2A B2 15 
47607.201200 1 5601066x Rx d 8 DD 28 7E E9 CC 1B DD 21 
47607.201200 1 5601069x Rx d 8 B9 F7 F5 FF 27 00 89 C0 
47607.202200 1 5601067x Rx d 8 4A 03 B2 D7 DB FC 7C CE 
47607.205200 1 5601065x Rx d 8 FC 16 CA DB 42 2A B2 15 
47607.206200 1 5601066x Rx d 8 DD 28 7E E9 CD 1B DD 21 
47607.206200 1 5601069x Rx d 8 B9 F7 F5 FF 27 00 89 C0 
47607.207200 1 5601067x Rx d 8 49 03 B3 D7 DB FC 7C CE 
47607.210200 1 5601065x Rx d 8 FB 16 CA DB 42 2A B2 15 
47607.211200 1 5601066x Rx d 8 DD 28 7E E9 CD 1B DD 21 
47607.211200 1 5601069x Rx d 8 B9 F7 F5 FF 27 00 89 C0 
47607.213200 1 5601067x Rx d 8 49 03 B3 D7 DB FC 7C CE 
47607.215200 1 5601065x Rx d 8 FB 16 CA DB 43 2A B2 15 
47607.216200 1 5601066x Rx d 8 DC 28 7E E9 CD 1B DD 21 
47607.216200 1 5601069x Rx d 8 B8 F7 F5 FF 26 00 89 C0 
47607.218200 1 5601067x Rx d 8 49 03 B3 D7 DB FC 7C CE 
47607.220200 1 5601065x Rx d 8 FB 16 CA DB 43 2A B2 15 
47607.221200 1 5601066x Rx d 8 DC 28 7E E9 CD 1B DD 21 
47607.221200 1 5601069x Rx d 8 B8 F7 F5 FF 26 00 89 C0 
47607.223200 1 5601067x Rx d 8 49 03 B3 D7 DB FC 7B CE 
47607.225200 1 5601065x Rx d 8 FA 16 CA DB 43 2A B2 15 
47607.226200 1 5601066x Rx d 8 DC 28 7E E9 CE 1B DD 21 
47607.227200 1 5601069x Rx d 8 B8 F7 F4 FF 25 00 89 C0 
47607.228200 1 5601067x Rx d 8 49 03 B3 D7 DB FC 7B CE 
47607.230200 1 5601065x Rx d 8 FA 16 CA DB 43 2A B1 15 
47607.231200 1 5601066x Rx d 8 DC 28 7E E9 CE 1B DC 21 
47607.231200 1 5601069x Rx d 8 B8 F7 F4 FF 25 00 89 C0 
47607.233200 1 5601067x Rx d 8 48 03 B3 D7 DB FC 7B CE 
47607.235200 1 5601065x Rx d 8 FA 16 CA DB 44 2A B1 15 
47607.236200 1 5601066x Rx d 8 DC 28 7E E9 CE 1B DD 21 
47607.237200 1 5601069x Rx d 8 B7 F7 F4 FF 24 00 89 C0 
47607.238200 1 5601067x Rx d 8 48 03 B3 D7 DB FC 7B CE 
47607.240200 1 5601065x Rx d 8 FA 16 CA DB 44 2A B1 15 
47607.241200 1 5601066x Rx d 8 DC 28 7E E9 CF 1B DC 21 
47607.242200 1 5601069x Rx d 8 B7 F7 F4 FF 24 00 89 C0 
47607.243200 1 5601067x Rx d 8 48 03 B3 D7 DC FC 7B CE 
47607.246200 1 5601065x Rx d 8 F9 16 CA DB 44 2A B0 15 
47607.246200 1 5601066x Rx d 8 DC 28 7E E9 CF 1B DC 21 
47607.247200 1 5601069x Rx d 8 B7 F7 F4 FF 23 00 89 C0 
47607.248200 1 5601067x Rx d 8 48 03 B4 D7 DC FC 7B CE 
47607.251200 1 5601065x Rx d 8 F9 16 CA DB 45 2A B0 15 
47607.251200 1 2001065x Rx d 8 AF C1 74 90 AB 04 DB 7F 
47607.252200 1 5601066x Rx d 8 DC 28 7E E9 CF 1B DC 21 
47607.252200 1 2001066x Rx d 8 B7 2F 56 89 FA 02 ED 7F 
47607.253200 1 5601069x Rx d 8 B7 F7 F4 FF 23 00 89 C0 
47607.253200 1 2001069x Rx d 8 02 FF 17 00 00 80 F8 7F 
47607.254200 1 5601067x Rx d 8 48 03 B4 D7 DC FC 7B CE 
47607.254200 1 2001067x Rx d 8 51 16 FF 7D 56 04 F8 7F 
47607.256200 1 5601065x Rx d 8 F9 16 CA DB 45 2A B0 15 
47607.256200 1 5601066x Rx d 8 DB 28 7D E9 CF 1B DC 21 
47607.257200 1 5601069x Rx d 8 B7 F7 F4 FF 22 00 89 C0 
47607.258200 1 5601067x Rx d 8 47 03 B4 D7 DC FC 7B CE 
47607.261200 1 5601065x Rx d 8 F8 16 CA DB 45 2A B0 15 
47607.261200 1 5601066x Rx d 8 DB 28 7E E9 CF 1B DC 21 
47607.262200 1 5601069x Rx d 8 B6 F7 F4 FF 22 00 89 C0 
47607.263200 1 5601067x Rx d 8 47 03 B4 D7 DC FC 7B CE 
47607.266200 1 5601065x Rx d 8 F8 16 CA DB 45 2A AF 15 
47607.266200 1 5601066x Rx d 8 DB 28 7D E9 CF 1B DC 21 
47607.267200 1 5601069x Rx d 8 B6 F7 03 00 36 00 89 C0 
47607.268200 1 5601067x Rx d 8 47 03 B4 D7 DC FC 7A CE 
47607.271200 1 5601065x Rx d 8 F8 16 CA DB 46 2A AF 15 
47607.271200 1 5601066x Rx d 8 DB 28 7D E9 CF 1B DC 21 
47607.272200 1 5601069x Rx d 8 B6 F7 02 00 35 00 89 C0 
47607.273200 1 5601067x Rx d 8 47 03 B4 D7 DC FC 7A CE 
47607.276200 1 5601065x Rx d 8 F8 16 CA DB 46 2A AF 15 
47607.277200 1 5601066x Rx d 8 DA 28 7D E9 CF 1B DC 21 
47607.277200 1 5601069x Rx d 8 B5 F7 02 00 35 00 89 C0 
47607.278200 1 5601067x Rx d 8 46 03 B5 D7 DC FC 7A CE 
47607.281200 1 5601065x Rx d 8 F7 16 CA DB 46 2A AF 15 
47607.282200 1 5601066x Rx d 8 DA 28 7D E9 D0 1B DC 21 
47607.282200 1 5601069x Rx d 8 B5 F7 02 00 34 00 89 C0 
47607.283200 1 5601067x Rx d 8 46 03 B5 D7 DC FC 7A CE 
47607.286200 1 5601065x Rx d 8 F7 16 CA DB 46 2A AF 15 
47607.287200 1 5601066x Rx d 8 DA 28 7D E9 D0 1B DC 21 
47607.287200 1 5601069x Rx d 8 B5 F7 02 00 34 00 89 C0 
47607.289200 1 5601067x Rx d 8 46 03 B5 D7 DC FC 7A CE 
47607.291200 1 5601065x Rx d 8 F7 16 CA DB 47 2A AE 15 
47607.292200 1 5601066x Rx d 8 DA 28 7D E9 D0 1B DC 21 
47607.292200 1 5601069x Rx d 8 B5 F7 01 00 33 00 89 C0 
47607.294200 1 5601067x Rx d 8 46 03 B5 D7 DC FC 7A CE 
47607.296200 1 5601065x Rx d 8 F6 16 CA DB 47 2A AE 15 
47607.297200 1 5601066x Rx d 8 DA 28 7D E9 D0 1B DC 21 
47607.297200 1 5601069x Rx d 8 B5 F7 01 00 33 00 89 C0 
47607.299200 1 5601067x Rx d 8 45 03 B5 D7 DC FC 7A CE 
47607.301200 1 5601065x Rx d 8 F6 16 CA DB 48 2A AE 15 
47607.302200 1 5601066x Rx d 8 DA 28 7D E9 D0 1B DC 21 
47607.302200 1 5601069x Rx d 8 B5 F7 00 00 33 00 89 C0 
47607.304200 1 5601067x Rx d 8 45 03 B5 D7 DC FC 7A CE 
47607.306200 1 5601065x Rx d 8 F6 16 CA DB 48 2A AD 15 
47607.307200 1 5601066x Rx d 8 DA 28 7D E9 D1 1B DC 21 
47607.307200 1 5601069x Rx d 8 B5 F7 00 00 32 00 89 C0 
47607.309200 1 5601067x Rx d 8 45 03 B6 D7 DC FC 79 CE 
47607.311200 1 5601065x Rx d 8 F5 16 CA DB 48 2A AD 15 
47607.312200 1 5601066x Rx d 8 D9 28 7D E9 D1 1B DC 21 
47607.313200 1 5601069x Rx d 8 B5 F7 FF FF 32 00 89 C0 
47607.314200 1 5601067x Rx d 8 45 03 B6 D7 DD FC 79 CE 
47607.317200 1 5601065x Rx d 8 F5 16 CA DB 49 2A AD 15 
47607.317200 1 5601066x Rx d 8 D9 28 7D E9 D1 1B DC 21 
47607.318200 1 5601069x Rx d 8 B5 F7 FF FF 31 00 89 C0 
47607.319200 1 5601067x Rx d 8 45 03 B6 D7 DD FC 79 CE 
47607.321200 1 5601065x Rx d 8 F5 16 CA DB 49 2A AC 15 
47607.322200 1 5601066x Rx d 8 D9 28 7D E9 D1 1B DC 21 
47607.323200 1 5601069x Rx d 8 B5 F7 FF FF 31 00 89 C0 
47607.324200 1 5601067x Rx d 8 44 03 B6 D7 DD FC 79 CE 
47607.327200 1 5601065x Rx d 8 F4 16 C9 DB 49 2A AB 15 
47607.327200 1 5601066x Rx d 8 D9 28 7D E9 D2 1B DC 21 
47607.328200 1 5601069x Rx d 8 B5 F7 FF FF 30 00 89 C0 
47607.329200 1 5601067x Rx d 8 44 03 B6 D7 DD FC 79 CE 
47607.332200 1 5601065x Rx d 8 F4 16 C9 DB 49 2A AB 15 
47607.332200 1 5601066x Rx d 8 D9 28 7D E9 D2 1B DC 21 
47607.333200 1 5601069x Rx d 8 B4 F7 FE FF 30 00 89 C0 
47607.334200 1 5601067x Rx d 8 44 03 B6 D7 DD FC 79 CE 
47607.337200 1 5601065x Rx d 8 F3 16 C9 DB 49 2A AB 15 
47607.337200 1 5601066x Rx d 8 D8 28 7C E9 D2 1B DC 21 
47607.338200 1 5601069x Rx d 8 B4 F7 FE FF 2F 00 89 C0 
47607.339200 1 5601067x Rx d 8 44 03 B7 D7 DD FC 78 CE 
47607.342200 1 5601065x Rx d 8 F3 16 C9 DB 4A 2A AA 15 
47607.342200 1 5601066x Rx d 8 D8 28 7C E9 D3 1B DC 21 
47607.343200 1 5601069x Rx d 8 B4 F7 FD FF 2F 00 89 C0 
47607.344200 1 5601067x Rx d 8 44 03 B7 D7 DD FC 78 CE 
47607.347200 1 5601065x Rx d 8 F2 16 C9 DB 4A 2A AA 15 
47607.347200 1 5601066x Rx d 8 D8 28 7C E9 D3 1B DC 21 
47607.348200 1 5601069x Rx d 8 B4 F7 FD FF 2F 00 89 C0 
47607.349200 1 5601067x Rx d 8 44 03 B7 D7 DD FC 78 CE 
47607.352200 1 5601065x Rx d 8 F2 16 C9 DB 4B 2A AA 15 
47607.352200 1 5601066x Rx d 8 D8 28 7C E9 D3 1B DC 21 
47607.353200 1 5601069x Rx d 8 B3 F7 FC FF 2E 00 89 C0 
47607.354200 1 5601067x Rx d 8 43 03 B7 D7 DD FC 78 CE 
47607.357200 1 5601065x Rx d 8 F2 16 C9 DB 4B 2A A9 15 
47607.357200 1 5601066x Rx d 8 D7 28 7C E9 D3 1B DC 21 
47607.358200 1 5601069x Rx d 8 B3 F7 FC FF 2E 00 89 C0 
47607.359200 1 5601067x Rx d 8 43 03 B7 D7 DD FC 78 CE 
47607.362200 1 5601065x Rx d 8 F2 16 C9 DB 4B 2A A9 15 
47607.363200 1 5601066x Rx d 8 D7 28 7C E9 D4 1B DC 21 
47607.363200 1 5601069x Rx d 8 B3 F7 FC FF 2D 00 89 C0 
47607.364200 1 5601067x Rx d 8 43 03 B7 D7 DD FC 78 CE 
47607.367200 1 5601065x Rx d 8 F1 16 C9 DB 4B 2A A9 15 
47607.368200 1 5601066x Rx d 8 D7 28 7B E9 D4 1B DC 21 
47607.368200 1 5601069x Rx d 8 B3 F7 FB FF 2D 00 89 C0 
47607.370200 1 5601067x Rx d 8 43 03 B7 D7 DD FC 78 CE 
47607.372200 1 5601065x Rx d 8 F1 16 C9 DB 4B 2A A9 15 
47607.373200 1 5601066x Rx d 8 D7 28 7B E9 D4 1B DC 21 
47607.373200 1 5601069x Rx d 8 B3 F7 FB FF 2C 00 89 C0 
47607.375200 1 5601067x Rx d 8 43 03 B8 D7 DD FC 77 CE 
47607.377200 1 5601065x Rx d 8 F1 16 C8 DB 4C 2A A9 15 
47607.378200 1 5601066x Rx d 8 D6 28 7B E9 D4 1B DC 21 
47607.378200 1 5601069x Rx d 8 B3 F7 FB FF 2C 00 89 C0 
47607.380200 1 5601067x Rx d 8 43 03 B8 D7 DD FC 77 CE 
47607.382200 1 5601065x Rx d 8 F1 16 C8 DB 4C 2A A8 15 
47607.383200 1 5601066x Rx d 8 D6 28 7B E9 D4 1B DC 21 
47607.383200 1 5601069x Rx d 8 B3 F7 FB FF 2B 00 89 C0 
47607.385200 1 5601067x Rx d 8 42 03 B8 D7 DD FC 77 CE 
47607.387200 1 5601065x Rx d 8 F0 16 C8 DB 4C 2A A8 15 
47607.388200 1 5601066x Rx d 8 D6 28 7B E9 D4 1B DC 21 
47607.388200 1 5601069x Rx d 8 B3 F7 FA FF 2B 00 89 C0 
47607.390200 1 5601067x Rx d 8 42 03 B8 D7 DD FC 77 CE 
47607.392200 1 5601065x Rx d 8 F0 16 C8 DB 4C 2A A8 15 
47607.393200 1 5601066x Rx d 8 D6 28 7B E9 D5 1B DC 21 
47607.393200 1 5601069x Rx d 8 B3 F7 FA FF 2A 00 89 C0 
47607.395200 1 5601067x Rx d 8 42 03 B9 D7 DD FC 77 CE 
47607.398200 1 5601065x Rx d 8 F0 16 C8 DB 4D 2A A7 15 
47607.398200 1 5601066x Rx d 8 D6 28 7A E9 D5 1B DC 21 
47607.399200 1 5601069x Rx d 8 B2 F7 FA FF 2A 00 89 C0 
47607.400200 1 5601067x Rx d 8 42 03 B9 D7 DD FC 77 CE 
47607.403200 1 5601065x Rx d 8 EF 16 C8 DB 4D 2A A7 15 
47607.403200 1 5601066x Rx d 8 D6 28 7A E9 D5 1B DB 21 
47607.404200 1 5601069x Rx d 8 B2 F7 F9 FF 29 00 8A C0 
47607.405200 1 5601067x Rx d 8 41 03 B9 D7 DD FC 77 CE 
47607.408200 1 5601065x Rx d 8 EF 16 C8 DB 4D 2A A6 15 
47607.408200 1 5601066x Rx d 8 D6 28 7A E9 D5 1B DB 21 
47607.409200 1 5601069x Rx d 8 B2 F7 F9 FF 29 00 8A C0 
47607.410200 1 5601067x Rx d 8 41 03 B9 D7 DD FC 76 CE 
47607.413200 1 5601065x Rx d 8 EF 16 C8 DB 4D 2A A6 15 
47607.413200 1 5601066x Rx d 8 D6 28 7A E9 D5 1B DB 21 
47607.414200 1 5601069x Rx d 8 B2 F7 F9 FF 28 00 8A C0 
47607.415200 1 5601067x Rx d 8 41 03 BA D7 DD FC 76 CE 
47607.418200 1 5601065x Rx d 8 EF 16 C7 DB 4E 2A A6 15 
47607.418200 1 5601066x Rx d 8 D6 28 7A E9 D5 1B DB 21 
47607.419200 1 5601069x Rx d 8 B2 F7 F8 FF 28 00 8A C0 
47607.420200 1 5601067x Rx d 8 41 03 BA D7 DD FC 76 CE 
47607.423200 1 5601065x Rx d 8 EF 16 C7 DB 4D 2A A6 15 
47607.423200 1 5601066x Rx d 8 D5 28 7A E9 D5 1B DC 21 
47607.424200 1 5601069x Rx d 8 B1 F7 F8 FF 27 00 8A C0 
47607.425200 1 5601067x Rx d 8 41 03 BA D7 DD FC 76 CE 
47607.428200 1 5601065x Rx d 8 EE 16 C7 DB 4D 2A A5 15 
47607.428200 1 5601066x Rx d 8 D5 28 7A E9 D5 1B DC 21 
47607.429200 1 5601069x Rx d 8 B1 F7 F8 FF 27 00 8A C0 
47607.430200 1 5601067x Rx d 8 41 03 BA D7 DD FC 76 CE 
47607.433200 1 5601065x Rx d 8 EE 16 C7 DB 4E 2A A5 15 
47607.434200 1 5601066x Rx d 8 D5 28 79 E9 D6 1B DC 21 
47607.434200 1 5601069x Rx d 8 B1 F7 F8 FF 26 00 8A C0 
47607.435200 1 5601067x Rx d 8 41 03 BA D7 DD FC 76 CE 
47607.438200 1 5601065x Rx d 8 ED 16 C7 DB 4E 2A A4 15 
47607.439200 1 5601066x Rx d 8 D5 28 79 E9 D6 1B DB 21 
47607.439200 1 5601069x Rx d 8 B1 F7 F8 FF 26 00 8A C0 
47607.440200 1 5601067x Rx d 8 41 03 BA D7 DD FC 76 CE 
47607.443200 1 5601065x Rx d 8 ED 16 C7 DB 4E 2A A4 15 
47607.444200 1 5601066x Rx d 8 D5 28 79 E9 D6 1B DB 21 
47607.444200 1 5601069x Rx d 8 B0 F7 F8 FF 25 00 8A C0 
47607.445200 1 5601067x Rx d 8 41 03 BA D7 DD FC 76 CE 
47607.448200 1 5601065x Rx d 8 ED 16 C7 DB 4E 2A A4 15 
47607.449200 1 5601066x Rx d 8 D5 28 79 E9 D7 1B DB 21 
47607.449200 1 5601069x Rx d 8 B0 F7 F8 FF 25 00 8A C0 
47607.451200 1 5601067x Rx d 8 40 03 BA D7 DD FC 75 CE 
47607.453200 1 5601065x Rx d 8 EC 16 C6 DB 4F 2A A3 15 
47607.454200 1 5601066x Rx d 8 D4 28 79 E9 D7 1B DB 21 
47607.454200 1 5601069x Rx d 8 B0 F7 F8 FF 24 00 8A C0 
47607.456200 1 5601067x Rx d 8 40 03 BA D7 DD FC 75 CE 
47607.458200 1 5601065x Rx d 8 EC 16 C6 DB 4F 2A A3 15 
47607.459200 1 5601069x Rx d 8 B0 F7 F8 FF 24 00 8A C0 
47607.459200 1 5601066x Rx d 8 DE 28 76 E9 C8 1B D9 21 
47607.461200 1 5601067x Rx d 8 40 03 BB D7 DE FC 75 CE 
47607.463200 1 5601065x Rx d 8 EC 16 C6 DB 4F 2A A3 15 
47607.464200 1 5601066x Rx d 8 DE 28 76 E9 C8 1B D9 21 
47607.464200 1 5601069x Rx d 8 AF F7 FB FF 38 00 8A C0 
47607.466200 1 5601067x Rx d 8 40 03 BB D7 DE FC 75 CE 
47607.468200 1 5601065x Rx d 8 EB 16 C6 DB 4F 2A A3 15 
47607.469200 1 5601066x Rx d 8 DE 28 75 E9 C8 1B D9 21 
47607.470200 1 5601069x Rx d 8 AF F7 FB FF 38 00 8A C0 
47607.471200 1 5601067x Rx d 8 40 03 BB D7 DE FC 75 CE 
47607.474200 1 5601065x Rx d 8 02 17 CC DB 42 2A AE 15 
47607.474200 1 5601066x Rx d 8 DE 28 75 E9 C8 1B D9 21 
47607.475200 1 5601069x Rx d 8 AF F7 FA FF 37 00 8A C0 
47607.476200 1 5601067x Rx d 8 3F 03 BB D7 DD FC 75 CE 
47607.479200 1 5601065x Rx d 8 02 17 CC DB 42 2A AE 15 
47607.479200 1 5601066x Rx d 8 DD 28 75 E9 C9 1B D9 21 
47607.480200 1 5601069x Rx d 8 AE F7 FA FF 37 00 8A C0 
47607.481200 1 5601067x Rx d 8 3F 03 BB D7 DD FC 75 CE 
47607.484200 1 5601065x Rx d 8 01 17 CC DB 42 2A AE 15 
47607.484200 1 5601066x Rx d 8 DD 28 75 E9 C9 1B D9 21 
47607.485200 1 5601069x Rx d 8 AE F7 FA FF 36 00 8A C0 
47607.486200 1 5601067x Rx d 8 3E 03 BC D7 DD FC 74 CE 
47607.489200 1 5601065x Rx d 8 01 17 CC DB 43 2A AE 15 
47607.489200 1 5601066x Rx d 8 DD 28 76 E9 C9 1B D9 21 
47607.490200 1 5601069x Rx d 8 AE F7 FA FF 36 00 8A C0 
47607.491200 1 5601067x Rx d 8 3E 03 BC D7 DD FC 74 CE 
47607.494200 1 5601065x Rx d 8 01 17 CC DB 43 2A AE 15 
47607.494200 1 5601066x Rx d 8 DD 28 76 E9 CA 1B D9 21 
47607.495200 1 5601069x Rx d 8 AE F7 F9 FF 36 00 8A C0 
47607.496200 1 5601067x Rx d 8 3E 03 BC D7 DD FC 74 CE 
47607.499200 1 5601065x Rx d 8 F8 16 D1 DB 48 2A B6 15 
47607.499200 1 5601066x Rx d 8 DD 28 76 E9 CA 1B D9 21 
47607.500200 1 5601069x Rx d 8 AD F7 F9 FF 35 00 8A C0 
47607.501200 1 5601067x Rx d 8 3E 03 BC D7 DD FC 74 CE 
47607.504200 1 5601065x Rx d 8 F7 16 D1 DB 48 2A B6 15 
47607.504200 1 2001065x Rx d 8 AF C1 77 90 AF 04 D8 7F 
47607.505200 1 5601066x Rx d 8 DD 28 76 E9 CA 1B D8 21 
47607.506200 1 2001066x Rx d 8 BF 2F 54 89 FA 02 F3 7F 
47607.506200 1 5601069x Rx d 8 AE F7 F9 FF 35 00 8A C0 
47607.507200 1 2001069x Rx d 8 04 FF 19 00 00 80 EE 7F 
47607.507200 1 5601067x Rx d 8 3D 03 BC D7 DD FC 74 CE 
47607.508200 1 2001067x Rx d 8 4C 16 01 7E 54 04 F8 7F 
47607.509200 1 5601065x Rx d 8 F7 16 D1 DB 48 2A B6 15 
47607.510200 1 5601066x Rx d 8 DD 28 76 E9 CA 1B D9 21 
47607.510200 1 5601069x Rx d 8 AD F7 F9 FF 35 00 8A C0 
47607.511200 1 5601067x Rx d 8 3D 03 BC D7 DC FC 74 CE 
47607.514200 1 5601065x Rx d 8 F6 16 D1 DB 48 2A B6 15 
47607.515200 1 5601066x Rx d 8 DD 28 75 E9 CB 1B D8 21 
47607.515200 1 5601069x Rx d 8 AD F7 F8 FF 34 00 8A C0 
47607.516200 1 5601067x Rx d 8 3D 03 BD D7 DC FC 74 CE 
47607.519200 1 5601065x Rx d 8 F6 16 D0 DB 49 2A B5 15 
47607.520200 1 5601066x Rx d 8 DD 28 75 E9 CB 1B D8 21 
47607.520200 1 5601069x Rx d 8 AD F7 F8 FF 34 00 8A C0 
47607.521200 1 5601067x Rx d 8 3D 03 BD D7 DC FC 74 CE 
47607.524200 1 5601065x Rx d 8 F6 16 D0 DB 49 2A B5 15 
47607.525200 1 5601066x Rx d 8 DC 28 76 E9 CB 1B D8 21 
47607.525200 1 5601069x Rx d 8 AD F7 F8 FF 33 00 8B C0 
47607.527200 1 5601067x Rx d 8 3D 03 BD D7 DC FC 74 CE 
47607.529200 1 5601065x Rx d 8 F5 16 D0 DB 49 2A B5 15 
47607.530200 1 5601066x Rx d 8 DC 28 76 E9 CB 1B D8 21 
47607.530200 1 5601069x Rx d 8 AC F7 F8 FF 33 00 8B C0 
47607.532200 1 5601067x Rx d 8 3D 03 BD D7 DC FC 74 CE 
47607.534200 1 5601065x Rx d 8 F5 16 D0 DB 4A 2A B4 15 
47607.535200 1 5601066x Rx d 8 DC 28 76 E9 CC 1B D8 21 
47607.535200 1 5601069x Rx d 8 AC F7 F8 FF 33 00 8B C0 
47607.537200 1 5601067x Rx d 8 3D 03 BD D7 DC FC 74 CE 
47607.539200 1 5601065x Rx d 8 F5 16 D0 DB 4A 2A B4 15 
47607.540200 1 5601066x Rx d 8 DC 28 75 E9 CC 1B D8 21 
47607.540200 1 5601069x Rx d 8 AC F7 F8 FF 33 00 8B C0 
47607.542200 1 5601067x Rx d 8 3C 03 BD D7 DC FC 74 CE 
47607.544200 1 5601065x Rx d 8 F4 16 D0 DB 4A 2A B4 15 
47607.545200 1 5601069x Rx d 8 AC F7 F8 FF 32 00 8A C0 
47607.545200 1 5601066x Rx d 8 D5 28 7E E9 D6 1B DE 21 
47607.547200 1 5601067x Rx d 8 3C 03 BD D7 DC FC 73 CE 
47607.549200 1 5601065x Rx d 8 F4 16 D0 DB 4A 2A B3 15 
47607.550200 1 5601066x Rx d 8 D5 28 7E E9 D6 1B DE 21 
47607.551200 1 5601069x Rx d 8 AC F7 F8 FF 32 00 8A C0 
47607.552200 1 5601067x Rx d 8 3C 03 BD D7 DC FC 73 CE 
47607.555200 1 5601065x Rx d 8 F4 16 D0 DB 4B 2A B3 15 
47607.555200 1 5601066x Rx d 8 D5 28 7E E9 D6 1B DE 21 
47607.556200 1 5601069x Rx d 8 AC F7 F8 FF 32 00 8B C0 
47607.557200 1 5601067x Rx d 8 3C 03 BD D7 DC FC 73 CE 
47607.560200 1 5601065x Rx d 8 F3 16 D0 DB 4B 2A B3 15 
47607.560200 1 5601066x Rx d 8 D4 28 7E E9 D6 1B DE 21 
47607.561200 1 5601069x Rx d 8 AB F7 F8 FF 31 00 8B C0 
47607.562200 1 5601067x Rx d 8 3C 03 BD D7 DC FC 73 CE 
47607.565200 1 5601065x Rx d 8 F3 16 D0 DB 4B 2A B3 15 
47607.565200 1 5601066x Rx d 8 D4 28 7D E9 D6 1B DF 21 
47607.566200 1 5601069x Rx d 8 AB F7 F8 FF 31 00 8B C0 
47607.567200 1 5601067x Rx d 8 3C 03 BE D7 DC FC 73 CE 
47607.570200 1 5601065x Rx d 8 F3 16 CF DB 4B 2A B2 15 
47607.570200 1 5601066x Rx d 8 D4 28 7D E9 D7 1B DE 21 
47607.571200 1 5601069x Rx d 8 AB F7 F8 FF 31 00 8B C0 
47607.572200 1 5601067x Rx d 8 3C 03 BE D7 DC FC 73 CE 
47607.575200 1 5601065x Rx d 8 F2 16 CF DB 4B 2A B2 15 
47607.575200 1 5601066x Rx d 8 D4 28 7D E9 D7 1B DF 21 
47607.576200 1 5601069x Rx d 8 AB F7 F8 FF 30 00 8B C0 
47607.577200 1 5601067x Rx d 8 3C 03 BE D7 DC FC 73 CE 
47607.580200 1 5601065x Rx d 8 F2 16 CF DB 4C 2A B1 15 
47607.580200 1 5601066x Rx d 8 D3 28 7D E9 D7 1B DE 21 
47607.581200 1 5601069x Rx d 8 AA F7 F8 FF 30 00 8B C0 
47607.582200 1 5601067x Rx d 8 3B 03 BE D7 DC FC 73 CE 
47607.585200 1 5601065x Rx d 8 F2 16 CF DB 4C 2A B1 15 
47607.585200 1 5601066x Rx d 8 D3 28 7D E9 D8 1B DE 21 
47607.586200 1 5601069x Rx d 8 AA F7 F8 FF 2F 00 8B C0 
47607.587200 1 5601067x Rx d 8 3B 03 BE D7 DC FC 72 CE 
47607.590200 1 5601065x Rx d 8 F2 16 CF DB 4C 2A B1 15 
47607.591200 1 5601066x Rx d 8 D3 28 7D E9 D8 1B DF 21 
47607.591200 1 5601069x Rx d 8 AA F7 F8 FF 2F 00 8B C0 
47607.592200 1 5601067x Rx d 8 3B 03 BE D7 DC FC 72 CE 
47607.595200 1 5601065x Rx d 8 F1 16 CF DB 4D 2A B1 15 
47607.596200 1 5601066x Rx d 8 DA 28 75 E9 CF 1B D9 21 
47607.596200 1 5601069x Rx d 8 AA F7 F8 FF 2E 00 8B C0 
47607.598200 1 5601067x Rx d 8 3B 03 BE D7 DD FC 72 CE 
47607.600200 1 5601065x Rx d 8 F1 16 CF DB 4D 2A B0 15 
47607.601200 1 5601066x Rx d 8 DA 28 75 E9 CF 1B D9 21 
47607.601200 1 5601069x Rx d 8 A9 F7 F8 FF 2E 00 8B C0 
47607.603200 1 5601067x Rx d 8 3B 03 BE D7 DD FC 72 CE 
47607.605200 1 5601065x Rx d 8 F1 16 CF DB 4D 2A B0 15 
47607.606200 1 5601066x Rx d 8 D9 28 75 E9 CF 1B D9 21 
47607.606200 1 5601069x Rx d 8 A9 F7 F8 FF 2E 00 8B C0 
47607.608200 1 5601067x Rx d 8 3B 03 BE D7 DD FC 72 CE 
47607.610200 1 5601065x Rx d 8 F0 16 CF DB 4E 2A B0 15 
47607.611200 1 5601066x Rx d 8 D9 28 75 E9 CF 1B D9 21 
47607.611200 1 5601069x Rx d 8 A9 F7 F8 FF 2D 00 8B C0 
47607.613200 1 5601067x Rx d 8 3B 03 BE D7 DD FC 72 CE 
47607.615200 1 5601065x Rx d 8 F0 16 CF DB 4E 2A AF 15 
47607.616200 1 5601066x Rx d 8 D9 28 75 E9 CF 1B D9 21 
47607.616200 1 5601069x Rx d 8 A9 F7 F8 FF 2D 00 8B C0 
47607.618200 1 5601067x Rx d 8 3B 03 BE D7 DD FC 72 CE 
47607.620200 1 5601065x Rx d 8 F0 16 CF DB 4E 2A AF 15 
47607.621200 1 5601066x Rx d 8 D9 28 75 E9 CF 1B DA 21 
47607.621200 1 5601069x Rx d 8 A8 F7 F8 FF 2C 00 8B C0 
47607.623200 1 5601067x Rx d 8 3A 03 BE D7 DD FC 72 CE 
47607.626200 1 5601065x Rx d 8 EF 16 CE DB 4E 2A AE 15 
47607.626200 1 5601066x Rx d 8 D8 28 75 E9 CF 1B DA 21 
47607.627200 1 5601069x Rx d 8 A8 F7 F8 FF 2C 00 8B C0 
47607.628200 1 5601067x Rx d 8 3A 03 BE D7 DD FC 72 CE 
47607.630200 1 5601065x Rx d 8 EF 16 CE DB 4F 2A AE 15 
47607.631200 1 5601066x Rx d 8 D8 28 75 E9 CF 1B DA 21 
47607.632200 1 5601069x Rx d 8 A8 F7 F8 FF 2B 00 8B C0 
47607.633200 1 5601067x Rx d 8 3A 03 BF D7 DD FC 72 CE 
47607.636200 1 5601065x Rx d 8 EF 16 CE DB 4F 2A AD 15 
47607.636200 1 5601066x Rx d 8 D8 28 75 E9 D0 1B D9 21 
47607.637200 1 5601069x Rx d 8 A8 F7 F8 FF 2B 00 8B C0 
47607.638200 1 5601067x Rx d 8 3A 03 BF D7 DD FC 72 CE 
47607.641200 1 5601065x Rx d 8 EF 16 CE DB 4F 2A AD 15 
47607.641200 1 5601066x Rx d 8 D8 28 75 E9 D0 1B D9 21 
47607.642200 1 5601069x Rx d 8 A7 F7 F8 FF 2A 00 8B C0 
47607.643200 1 5601067x Rx d 8 39 03 BF D7 DD FC 71 CE 
47607.646200 1 5601065x Rx d 8 EE 16 CE DB 4F 2A AD 15 
47607.646200 1 5601066x Rx d 8 D8 28 75 E9 D0 1B DA 21 
47607.647200 1 5601069x Rx d 8 A7 F7 F8 FF 2A 00 8B C0 
47607.648200 1 5601067x Rx d 8 39 03 BF D7 DE FC 72 CE 
47607.651200 1 5601065x Rx d 8 EE 16 CE DB 50 2A AD 15 
47607.651200 1 5601066x Rx d 8 D8 28 75 E9 D0 1B DA 21 
47607.652200 1 5601069x Rx d 8 A7 F7 F7 FF 29 00 8B C0 
47607.653200 1 5601067x Rx d 8 39 03 BF D7 DE FC 72 CE 
47607.656200 1 5601065x Rx d 8 ED 16 CE DB 50 2A AC 15 
47607.656200 1 5601066x Rx d 8 D8 28 75 E9 D0 1B DA 21 
47607.657200 1 5601069x Rx d 8 A7 F7 F7 FF 29 00 8B C0 
47607.658200 1 5601067x Rx d 8 38 03 BF D7 DE FC 71 CE 
47607.661200 1 5601065x Rx d 8 ED 16 CD DB 50 2A AC 15 
47607.661200 1 5601066x Rx d 8 D8 28 75 E9 D0 1B DA 21 
47607.662200 1 5601069x Rx d 8 A6 F7 F7 FF 28 00 8B C0 
47607.663200 1 5601067x Rx d 8 38 03 BF D7 DE FC 71 CE 
47607.666200 1 5601065x Rx d 8 ED 16 CD DB 50 2A AC 15 
47607.667200 1 5601066x Rx d 8 D7 28 75 E9 D1 1B D9 21 
47607.667200 1 5601069x Rx d 8 A6 F7 F7 FF 28 00 8B C0 
47607.668200 1 5601067x Rx d 8 38 03 BF D7 DE FC 71 CE 
47607.671200 1 5601065x Rx d 8 EC 16 CD DB 50 2A AC 15 
47607.672200 1 5601066x Rx d 8 D7 28 75 E9 D1 1B D9 21 
47607.672200 1 5601069x Rx d 8 A6 F7 F7 FF 27 00 8B C0 
47607.673200 1 5601067x Rx d 8 38 03 BF D7 DE FC 71 CE 
47607.676200 1 5601065x Rx d 8 EC 16 CD DB 50 2A AC 15 
47607.677200 1 5601066x Rx d 8 D7 28 75 E9 D1 1B D9 21 
47607.677200 1 5601069x Rx d 8 A6 F7 F7 FF 27 00 8B C0 
47607.679200 1 5601067x Rx d 8 38 03 C0 D7 DE FC 71 CE 
47607.681200 1 5601065x Rx d 8 EC 16 CD DB 51 2A AB 15 
47607.682200 1 5601066x Rx d 8 D7 28 74 E9 D2 1B D9 21 
47607.682200 1 5601069x Rx d 8 A6 F7 F7 FF 26 00 8B C0 
47607.684200 1 5601067x Rx d 8 38 03 C0 D7 DF FC 71 CE 
47607.686200 1 5601065x Rx d 8 EB 16 CD DB 51 2A AB 15 
47607.687200 1 5601066x Rx d 8 D7 28 74 E9 D2 1B DA 21 
47607.687200 1 5601069x Rx d 8 A5 F7 F7 FF 26 00 8B C0 
47607.689200 1 5601067x Rx d 8 41 03 BA D7 EA FC 75 CE 
47607.691200 1 5601065x Rx d 8 EB 16 CD DB 51 2A AB 15 
47607.692200 1 5601066x Rx d 8 D7 28 74 E9 D2 1B DA 21 
47607.692200 1 5601069x Rx d 8 A5 F7 F7 FF 25 00 8B C0 
47607.694200 1 5601067x Rx d 8 41 03 BA D7 EB FC 75 CE 
47607.696200 1 5601065x Rx d 8 EA 16 CD DB 52 2A AA 15 
47607.697200 1 5601066x Rx d 8 D6 28 74 E9 D2 1B DA 21 
47607.697200 1 5601069x Rx d 8 A5 F7 F7 FF 25 00 8B C0 
47607.699200 1 5601067x Rx d 8 41 03 BA D7 EA FC 75 CE 
47607.701200 1 5601065x Rx d 8 EA 16 CD DB 52 2A AA 15 
47607.702200 1 5601066x Rx d 8 D6 28 74 E9 D2 1B DA 21 
47607.702200 1 5601069x Rx d 8 A5 F7 F7 FF 24 00 8B C0 
47607.704200 1 5601067x Rx d 8 40 03 BA D7 EA FC 75 CE 
47607.707200 1 5601065x Rx d 8 EA 16 CD DB 52 2A AA 15 
47607.707200 1 5601066x Rx d 8 D6 28 74 E9 D2 1B DA 21 
47607.708200 1 5601069x Rx d 8 A5 F7 F6 FF 24 00 8B C0 
47607.709200 1 5601067x Rx d 8 40 03 BA D7 EA FC 75 CE 
47607.712200 1 5601065x Rx d 8 E9 16 CD DB 52 2A AA 15 
47607.712200 1 5601066x Rx d 8 D6 28 74 E9 D2 1B DA 21 
47607.713200 1 5601069x Rx d 8 A5 F7 F6 FF 24 00 8B C0 
47607.714200 1 5601067x Rx d 8 40 03 BA D7 EA FC 75 CE 
47607.717200 1 5601065x Rx d 8 E9 16 CD DB 53 2A AA 15 
47607.717200 1 5601066x Rx d 8 D5 28 74 E9 D3 1B DA 21 
47607.718200 1 5601069x Rx d 8 A5 F7 F6 FF 23 00 8B C0 
47607.719200 1 5601067x Rx d 8 40 03 BA D7 EB FC 74 CE 
47607.722200 1 5601065x Rx d 8 E8 16 CD DB 53 2A A9 15 
47607.722200 1 5601066x Rx d 8 D5 28 74 E9 D3 1B DA 21 
47607.723200 1 5601069x Rx d 8 A5 F7 F6 FF 23 00 8B C0 
47607.724200 1 5601067x Rx d 8 40 03 BA D7 EB FC 74 CE 
47607.727200 1 5601065x Rx d 8 E8 16 CD DB 53 2A A9 15 
47607.727200 1 5601066x Rx d 8 D5 28 74 E9 D3 1B DA 21 
47607.728200 1 5601069x Rx d 8 A5 F7 F6 FF 23 00 8B C0 
47607.729200 1 5601067x Rx d 8 3F 03 BA D7 EB FC 74 CE 
47607.732200 1 5601065x Rx d 8 E8 16 CD DB 54 2A A8 15 
47607.732200 1 5601066x Rx d 8 D5 28 74 E9 D3 1B D9 21 
47607.733200 1 5601069x Rx d 8 A5 F7 F6 FF 23 00 8B C0 
47607.734200 1 5601067x Rx d 8 3F 03 BB D7 EB FC 74 CE 
47607.737200 1 5601065x Rx d 8 E8 16 CC DB 54 2A A8 15 
47607.737200 1 5601066x Rx d 8 D5 28 74 E9 D3 1B D9 21 
47607.738200 1 5601069x Rx d 8 A5 F7 F6 FF 22 00 8B C0 
47607.739200 1 5601067x Rx d 8 3F 03 BB D7 EB FC 74 CE 
47607.742200 1 5601065x Rx d 8 E7 16 CC DB 54 2A A8 15 
47607.743200 1 5601066x Rx d 8 D5 28 74 E9 D4 1B DA 21 
47607.743200 1 5601069x Rx d 8 A4 F7 F6 FF 22 00 8B C0 
47607.744200 1 5601067x Rx d 8 3F 03 BB D7 EB FC 74 CE 
47607.747200 1 5601065x Rx d 8 E7 16 CC DB 54 2A A8 15 
47607.748200 1 5601066x Rx d 8 D5 28 74 E9 D4 1B DA 21 
47607.748200 1 5601069x Rx d 8 A4 F7 F6 FF 21 00 8C C0 
47607.749200 1 5601067x Rx d 8 3F 03 BB D7 EB FC 74 CE 
47607.752200 1 5601065x Rx d 8 E7 16 CC DB 55 2A A7 15 
47607.753200 1 5601066x Rx d 8 D5 28 74 E9 D4 1B DA 21 
47607.753200 1 5601069x Rx d 8 A4 F7 FA FF 36 00 8B C0 
47607.754200 1 5601067x Rx d 8 3F 03 BB D7 EB FC 73 CE 
47607.757200 1 5601065x Rx d 8 E6 16 CC DB 55 2A A7 15 
47607.758200 1 2001065x Rx d 8 B1 C1 79 90 AF 04 D5 7F 
47607.758200 1 5601066x Rx d 8 D4 28 73 E9 D4 1B DA 21 
47607.759200 1 2001066x Rx d 8 C1 2F 51 89 FA 02 F6 7F 
47607.759200 1 5601069x Rx d 8 A3 F7 FA FF 35 00 8B C0 
47607.760200 1 2001069x Rx d 8 07 FF 14 00 00 80 EB 7F 
47607.761200 1 5601067x Rx d 8 3E 03 BB D7 EB FC 73 CE 
47607.761200 1 2001067x Rx d 8 4E 16 FF 7D 52 04 FB 7F 
47607.762200 1 5601065x Rx d 8 E6 16 CC DB 55 2A A6 15 
47607.763200 1 5601066x Rx d 8 D4 28 73 E9 D4 1B DA 21 
47607.763200 1 5601069x Rx d 8 A3 F7 FA FF 35 00 8B C0 
47607.765200 1 5601067x Rx d 8 3E 03 BC D7 EB FC 73 CE 
47607.767200 1 5601065x Rx d 8 E5 16 CC DB 56 2A A6 15 
47607.768200 1 5601066x Rx d 8 D4 28 73 E9 D4 1B DA 21 
47607.768200 1 5601069x Rx d 8 A3 F7 F9 FF 34 00 8C C0 
47607.770200 1 5601067x Rx d 8 3E 03 BC D7 EB FC 73 CE 
47607.772200 1 5601065x Rx d 8 E5 16 CC DB 56 2A A6 15 
47607.773200 1 5601066x Rx d 8 D4 28 73 E9 D5 1B DA 21 
47607.773200 1 5601069x Rx d 8 A3 F7 F9 FF 34 00 8C C0 
47607.775200 1 5601067x Rx d 8 3E 03 BC D7 EB FC 73 CE 
47607.777200 1 5601065x Rx d 8 FC 16 D1 DB 49 2A B0 15 
47607.778200 1 5601066x Rx d 8 D4 28 74 E9 D5 1B DA 21 
47607.779200 1 5601069x Rx d 8 A2 F7 F9 FF 33 00 8C C0 
47607.780200 1 5601067x Rx d 8 3E 03 BC D7 EB FC 73 CE 
47607.783200 1 5601065x Rx d 8 FC 16 D1 DB 49 2A AF 15 
47607.783200 1 5601066x Rx d 8 D4 28 73 E9 D5 1B DA 21 
47607.784200 1 5601069x Rx d 8 A2 F7 F9 FF 33 00 8C C0 
47607.785200 1 5601067x Rx d 8 3D 03 BC D7 EB FC 73 CE 
47607.788200 1 5601065x Rx d 8 FB 16 D1 DB 4A 2A AF 15 
47607.788200 1 5601066x Rx d 8 D3 28 73 E9 D5 1B D9 21 
47607.789200 1 5601069x Rx d 8 A2 F7 F9 FF 33 00 8C C0 
47607.790200 1 5601067x Rx d 8 3D 03 BD D7 EB FC 72 CE 
47607.793200 1 5601065x Rx d 8 FA 16 D1 DB 4A 2A AF 15 
47607.793200 1 5601066x Rx d 8 D3 28 73 E9 D6 1B D9 21 
47607.794200 1 5601069x Rx d 8 A2 F7 F9 FF 32 00 8C C0 
47607.795200 1 5601067x Rx d 8 3D 03 BD D7 EB FC 72 CE 
47607.798200 1 5601065x Rx d 8 FA 16 D1 DB 4A 2A AE 15 
47607.798200 1 5601066x Rx d 8 D3 28 73 E9 D6 1B D9 21 
47607.799200 1 5601069x Rx d 8 A2 F7 F9 FF 32 00 8C C0 
47607.800200 1 5601067x Rx d 8 3D 03 BD D7 EB FC 72 CE 
47607.803200 1 5601065x Rx d 8 FA 16 D0 DB 4B 2A AE 15 
47607.803200 1 5601066x Rx d 8 D3 28 73 E9 D6 1B D9 21 
47607.804200 1 5601069x Rx d 8 A1 F7 F8 FF 31 00 8C C0 
47607.805200 1 5601067x Rx d 8 3D 03 BD D7 EB FC 72 CE 
47607.808200 1 5601065x Rx d 8 F9 16 D0 DB 4B 2A AE 15 
47607.808200 1 5601066x Rx d 8 D3 28 73 E9 D7 1B D9 21 
47607.809200 1 5601069x Rx d 8 A1 F7 F8 FF 31 00 8C C0 
47607.810200 1 5601067x Rx d 8 3C 03 BD D7 EB FC 72 CE 
47607.813200 1 5601065x Rx d 8 F9 16 D0 DB 4B 2A AD 15 
47607.813200 1 5601066x Rx d 8 D3 28 73 E9 D7 1B D9 21 
47607.814200 1 5601069x Rx d 8 A1 F7 F8 FF 30 00 8C C0 
47607.815200 1 5601067x Rx d 8 3C 03 BE D7 EB FC 71 CE 
47607.818200 1 5601065x Rx d 8 F8 16 D0 DB 4C 2A AE 15 
47607.818200 1 5601066x Rx d 8 D2 28 73 E9 D7 1B D9 21 
47607.819200 1 5601069x Rx d 8 A1 F7 F8 FF 30 00 8C C0 
47607.820200 1 5601067x Rx d 8 3C 03 BE D7 EB FC 71 CE 
47607.823200 1 5601065x Rx d 8 F8 16 D0 DB 4C 2A AE 15 
47607.823200 1 5601066x Rx d 8 D2 28 73 E9 D8 1B D9 21 
47607.824200 1 5601069x Rx d 8 A1 F7 F8 FF 2F 00 8C C0 
47607.825200 1 5601067x Rx d 8 3C 03 BE D7 EB FC 71 CE 
47607.828200 1 5601065x Rx d 8 F8 16 D0 DB 4C 2A AD 15 
47607.829200 1 5601066x Rx d 8 D2 28 73 E9 D8 1B D9 21 
47607.829200 1 5601069x Rx d 8 A1 F7 F8 FF 2F 00 8C C0 
47607.830200 1 5601067x Rx d 8 3C 03 BE D7 EB FC 71 CE 
47607.833200 1 5601065x Rx d 8 F8 16 D0 DB 4C 2A AD 15 
47607.834200 1 5601066x Rx d 8 D2 28 73 E9 D8 1B D9 21 
47607.834200 1 5601069x Rx d 8 A1 F7 F8 FF 2E 00 8C C0 
47607.836200 1 5601067x Rx d 8 3C 03 BE D7 EC FC 71 CE 
47607.838200 1 5601065x Rx d 8 F7 16 D0 DB 4D 2A AC 15 
47607.839200 1 5601066x Rx d 8 D1 28 73 E9 D8 1B D9 21 
47607.839200 1 5601069x Rx d 8 A1 F7 F8 FF 2E 00 8C C0 
47607.841200 1 5601067x Rx d 8 3C 03 BF D7 EC FC 71 CE 
47607.843200 1 5601065x Rx d 8 F7 16 D0 DB 4D 2A AC 15 
47607.844200 1 5601066x Rx d 8 D1 28 72 E9 D8 1B D9 21 
47607.844200 1 5601069x Rx d 8 A1 F7 F8 FF 2D 00 8C C0 
47607.846200 1 5601067x Rx d 8 3B 03 BF D7 EC FC 71 CE 
47607.848200 1 5601065x Rx d 8 F7 16 CF DB 4D 2A AC 15 
47607.849200 1 5601066x Rx d 8 D1 28 72 E9 D8 1B D9 21 
47607.849200 1 5601069x Rx d 8 A0 F7 F8 FF 2D 00 8C C0 
47607.851200 1 5601067x Rx d 8 3B 03 BF D7 EC FC 71 CE 
47607.853200 1 5601065x Rx d 8 F6 16 CF DB 4D 2A AB 15 
47607.854200 1 5601066x Rx d 8 D1 28 72 E9 D9 1B DA 21 
47607.854200 1 5601069x Rx d 8 A0 F7 F8 FF 2C 00 8C C0 
47607.856200 1 5601067x Rx d 8 3B 03 BF D7 EC FC 71 CE 
47607.858200 1 5601065x Rx d 8 F6 16 CF DB 4D 2A AB 15 
47607.859200 1 5601066x Rx d 8 D1 28 72 E9 D9 1B D9 21 
47607.860200 1 5601069x Rx d 8 A0 F7 F8 FF 2C 00 8C C0 
47607.861200 1 5601067x Rx d 8 3B 03 BF D7 EC FC 71 CE 
47607.864200 1 5601065x Rx d 8 F5 16 CF DB 4D 2A AB 15 
47607.864200 1 5601066x Rx d 8 D1 28 72 E9 D9 1B D9 21 
47607.865200 1 5601069x Rx d 8 A0 F7 F7 FF 2B 00 8C C0 
47607.866200 1 5601067x Rx d 8 3B 03 BF D7 EC FC 71 CE 
47607.869200 1 5601065x Rx d 8 F5 16 CF DB 4D 2A AB 15 
47607.869200 1 5601066x Rx d 8 D0 28 72 E9 D9 1B D9 21 
47607.870200 1 5601069x Rx d 8 9F F7 F7 FF 2B 00 8C C0 
47607.871200 1 5601067x Rx d 8 3B 03 BF D7 EC FC 71 CE 
47607.874200 1 5601065x Rx d 8 F5 16 CF DB 4E 2A AB 15 
47607.874200 1 5601066x Rx d 8 D0 28 72 E9 D9 1B DA 21 
47607.875200 1 5601069x Rx d 8 9F F7 F7 FF 2A 00 8C C0 
47607.876200 1 5601067x Rx d 8 3B 03 BF D7 EC FC 70 CE 
47607.879200 1 5601065x Rx d 8 F5 16 CF DB 4E 2A AB 15 
47607.879200 1 5601066x Rx d 8 D0 28 73 E9 D9 1B DA 21 
47607.880200 1 5601069x Rx d 8 9F F7 F7 FF 2A 00 8C C0 
47607.881200 1 5601067x Rx d 8 3B 03 BF D7 EC FC 70 CE 
47607.884200 1 5601065x Rx d 8 F4 16 CF DB 4E 2A AB 15 
47607.884200 1 5601066x Rx d 8 E0 28 76 E9 C2 1B DC 21 
47607.885200 1 5601069x Rx d 8 9F F7 F7 FF 2A 00 8C C0 
47607.886200 1 5601067x Rx d 8 3A 03 BF D7 EC FC 70 CE 
47607.889200 1 5601065x Rx d 8 F4 16 CF DB 4E 2A AA 15 
47607.889200 1 5601066x Rx d 8 E0 28 76 E9 C3 1B DC 21 
47607.890200 1 5601069x Rx d 8 9F F7 F6 FF 29 00 8C C0 
47607.891200 1 5601067x Rx d 8 3A 03 BF D7 ED FC 70 CE 
47607.894200 1 5601065x Rx d 8 F3 16 CE DB 4F 2A AA 15 
47607.894200 1 5601066x Rx d 8 E0 28 76 E9 C3 1B DC 21 
47607.895200 1 5601069x Rx d 8 9F F7 F6 FF 29 00 8C C0 
47607.896200 1 5601067x Rx d 8 3A 03 C0 D7 ED FC 70 CE 
47607.899200 1 5601065x Rx d 8 F3 16 CE DB 4F 2A AA 15 
47607.900200 1 5601066x Rx d 8 DF 28 76 E9 C3 1B DC 21 
47607.900200 1 5601069x Rx d 8 9F F7 F6 FF 28 00 8C C0 
47607.901200 1 5601067x Rx d 8 3A 03 C0 D7 ED FC 70 CE 
47607.904200 1 5601065x Rx d 8 F2 16 CE DB 4F 2A A9 15 
47607.905200 1 5601066x Rx d 8 DF 28 76 E9 C3 1B DC 21 
47607.905200 1 5601069x Rx d 8 9E F7 F6 FF 28 00 8C C0 
47607.906200 1 5601067x Rx d 8 3A 03 C0 D7 ED FC 70 CE 
47607.909200 1 5601065x Rx d 8 F1 16 CE DB 50 2A A9 15 
47607.910200 1 5601066x Rx d 8 DF 28 75 E9 C4 1B DC 21 
47607.910200 1 5601069x Rx d 8 9E F7 F6 FF 27 00 8C C0 
47607.912200 1 5601067x Rx d 8 3A 03 C0 D7 ED FC 6F CE 
47607.914200 1 5601065x Rx d 8 F1 16 CE DB 50 2A A9 15 
47607.915200 1 5601066x Rx d 8 DF 28 75 E9 C4 1B DC 21 
47607.915200 1 5601069x Rx d 8 9E F7 F6 FF 27 00 8C C0 
47607.917200 1 5601067x Rx d 8 39 03 C0 D7 EE FC 6F CE 
47607.919200 1 5601065x Rx d 8 F1 16 CE DB 50 2A A9 15 
47607.920200 1 5601066x Rx d 8 DE 28 76 E9 C4 1B DC 21 
47607.920200 1 5601069x Rx d 8 9E F7 F6 FF 27 00 8C C0 
47607.922200 1 5601067x Rx d 8 39 03 C0 D7 EE FC 6F CE 
47607.924200 1 5601065x Rx d 8 F1 16 CD DB 50 2A A8 15 
47607.925200 1 5601066x Rx d 8 DE 28 75 E9 C4 1B DC 21 
47607.925200 1 5601069x Rx d 8 9E F7 F7 FF 3B 00 8C C0 
47607.927200 1 5601067x Rx d 8 39 03 C1 D7 EE FC 6F CE 
47607.929200 1 5601065x Rx d 8 F1 16 CD DB 50 2A A8 15 
47607.930200 1 5601066x Rx d 8 DE 28 75 E9 C4 1B DC 21 
47607.931200 1 5601069x Rx d 8 9E F7 F7 FF 3B 00 8C C0 
47607.932200 1 5601067x Rx d 8 39 03 C1 D7 EE FC 6F CE 
47607.934200 1 5601065x Rx d 8 F0 16 CD DB 50 2A A8 15 
47607.935200 1 5601066x Rx d 8 DE 28 75 E9 C4 1B DC 21 
47607.936200 1 5601069x Rx d 8 9D F7 F7 FF 3A 00 8D C0 
47607.937200 1 5601067x Rx d 8 39 03 C1 D7 EE FC 6F CE 
47607.939200 1 5601065x Rx d 8 F0 16 CD DB 51 2A A8 15 
47607.940200 1 5601066x Rx d 8 DE 28 75 E9 C4 1B DC 21 
47607.941200 1 5601069x Rx d 8 9D F7 F7 FF 3A 00 8D C0 
47607.942200 1 5601067x Rx d 8 38 03 C1 D7 EE FC 6E CE 
47607.945200 1 5601065x Rx d 8 EF 16 CD DB 51 2A A7 15 
47607.945200 1 5601066x Rx d 8 DD 28 75 E9 C5 1B DC 21 
47607.946200 1 5601069x Rx d 8 9D F7 F7 FF 39 00 8D C0 
47607.947200 1 5601067x Rx d 8 38 03 C1 D7 EE FC 6E CE 
47607.950200 1 5601065x Rx d 8 EF 16 CD DB 51 2A A7 15 
47607.950200 1 5601069x Rx d 8 9D F7 F7 FF 39 00 8D C0 
47607.951200 1 5601066x Rx d 8 D3 28 7B E9 D3 1B E0 21 
47607.952200 1 5601067x Rx d 8 38 03 C1 D7 EE FC 6E CE 
47607.955200 1 5601065x Rx d 8 EF 16 CD DB 52 2A A7 15 
47607.955200 1 5601066x Rx d 8 D3 28 7A E9 D4 1B E0 21 
47607.956200 1 5601069x Rx d 8 9C F7 F7 FF 38 00 8D C0 
47607.957200 1 5601067x Rx d 8 37 03 C1 D7 EE FC 6E CE 
47607.960200 1 5601065x Rx d 8 EE 16 CD DB 52 2A A7 15 
47607.960200 1 5601066x Rx d 8 D3 28 7A E9 D4 1B E0 21 
47607.961200 1 5601069x Rx d 8 9C F7 F7 FF 38 00 8D C0 
47607.962200 1 5601067x Rx d 8 37 03 C1 D7 EE FC 6E CE 
47607.965200 1 5601065x Rx d 8 EE 16 CD DB 52 2A A6 15 
47607.965200 1 5601066x Rx d 8 D2 28 7A E9 D4 1B E0 21 
47607.966200 1 5601069x Rx d 8 9C F7 F7 FF 37 00 8D C0 
47607.967200 1 5601067x Rx d 8 37 03 C1 D7 EE FC 6E CE 
47607.970200 1 5601065x Rx d 8 EE 16 CD DB 52 2A A6 15 
47607.970200 1 5601066x Rx d 8 D2 28 7A E9 D4 1B E0 21 
47607.971200 1 5601069x Rx d 8 9C F7 F7 FF 37 00 8D C0 
47607.972200 1 5601067x Rx d 8 37 03 C1 D7 EE FC 6E CE 
47607.975200 1 5601065x Rx d 8 ED 16 CD DB 53 2A A6 15 
47607.975200 1 5601066x Rx d 8 D2 28 7A E9 D5 1B E0 21 
47607.976200 1 5601069x Rx d 8 9C F7 F7 FF 36 00 8D C0 
47607.977200 1 5601067x Rx d 8 36 03 C1 D7 EE FC 6E CE 
47607.980200 1 5601065x Rx d 8 ED 16 CD DB 53 2A A5 15 
47607.981200 1 5601066x Rx d 8 D2 28 7A E9 D5 1B E0 21 
47607.981200 1 5601069x Rx d 8 9C F7 F7 FF 36 00 8D C0 
47607.982200 1 5601067x Rx d 8 36 03 C1 D7 EF FC 6E CE 
47607.985200 1 5601065x Rx d 8 ED 16 CD DB 53 2A A5 15 
47607.986200 1 5601066x Rx d 8 D2 28 7B E9 D5 1B E0 21 
47607.986200 1 5601069x Rx d 8 9C F7 F7 FF 35 00 8D C0 
47607.988200 1 5601067x Rx d 8 36 03 C2 D7 EF FC 6E CE 
47607.990200 1 5601065x Rx d 8 ED 16 CD DB 54 2A A5 15 
47607.991200 1 5601066x Rx d 8 D2 28 7A E9 D5 1B E0 21 
47607.991200 1 5601069x Rx d 8 9B F7 F7 FF 35 00 8D C0 
47607.993200 1 5601067x Rx d 8 36 03 C2 D7 EF FC 6E CE 
47607.995200 1 5601065x Rx d 8 FF 16 D6 DB 48 2A B6 15 
47607.996200 1 5601066x Rx d 8 D2 28 7A E9 D6 1B E0 21 
47607.996200 1 5601069x Rx d 8 9B F7 F7 FF 34 00 8D C0 
47607.998200 1 5601067x Rx d 8 36 03 C2 D7 EF FC 6D CE 
47608.000200 1 5601065x Rx d 8 FF 16 D6 DB 49 2A B5 15 
47608.001200 1 5601066x Rx d 8 D1 28 7A E9 D6 1B E0 21 
47608.001200 1 5601069x Rx d 8 9B F7 F6 FF 34 00 8D C0 
47608.003200 1 5601067x Rx d 8 36 03 C2 D7 EF FC 6D CE 
47608.005200 1 5601065x Rx d 8 FE 16 D6 DB 49 2A B5 15 
47608.006200 1 5601066x Rx d 8 D1 28 7A E9 D6 1B E0 21 
47608.006200 1 5601069x Rx d 8 9B F7 F6 FF 33 00 8D C0 
47608.008200 1 5601067x Rx d 8 35 03 C2 D7 EE FC 6D CE 
47608.010200 1 5601065x Rx d 8 FE 16 D6 DB 4A 2A B5 15 
47608.011200 1 2001065x Rx d 8 AA C1 79 90 AB 04 D9 7F 
47608.011200 1 5601066x Rx d 8 D1 28 7A E9 D7 1B E0 21 
47608.012200 1 2001066x Rx d 8 BA 2F 56 89 FC 02 EE 7F 
47608.013200 1 5601069x Rx d 8 9B F7 F6 FF 33 00 8D C0 
47608.013200 1 2001069x Rx d 8 09 FF 17 00 00 80 F0 7F 
47608.014200 1 5601067x Rx d 8 35 03 C2 D7 EE FC 6D CE 
47608.014200 1 2001067x Rx d 8 58 16 FD 7D 51 04 FB 7F 
47608.016200 1 5601065x Rx d 8 FE 16 D6 DB 4A 2A B4 15 
47608.016200 1 5601066x Rx d 8 D1 28 7A E9 D7 1B E0 21 
47608.017200 1 5601069x Rx d 8 9B F7 F6 FF 32 00 8D C0 
47608.018200 1 5601067x Rx d 8 35 03 C3 D7 EE FC 6D CE 
47608.021200 1 5601065x Rx d 8 FD 16 D5 DB 4A 2A B4 15 
47608.021200 1 5601066x Rx d 8 D0 28 7A E9 D7 1B E0 21 
47608.022200 1 5601069x Rx d 8 9B F7 F6 FF 32 00 8D C0 
47608.023200 1 5601067x Rx d 8 35 03 C3 D7 EE FC 6C CE 
47608.026200 1 5601065x Rx d 8 FD 16 D5 DB 4A 2A B4 15 
47608.026200 1 5601069x Rx d 8 9B F7 F6 FF 31 00 8D C0 
47608.027200 1 5601066x Rx d 8 DD 28 79 E9 C5 1B DF 21 
47608.028200 1 5601067x Rx d 8 35 03 C3 D7 EF FC 6C CE 
47608.031200 1 5601065x Rx d 8 FD 16 D6 DB 4A 2A B3 15 
47608.031200 1 5601066x Rx d 8 DC 28 78 E9 C6 1B DF 21 
47608.032200 1 5601069x Rx d 8 9B F7 F6 FF 31 00 8D C0 
47608.033200 1 5601067x Rx d 8 35 03 C3 D7 EF FC 6C CE 
47608.036200 1 5601065x Rx d 8 FD 16 D5 DB 4B 2A B3 15 
47608.036200 1 5601066x Rx d 8 DC 28 78 E9 C6 1B DF 21 
47608.037200 1 5601069x Rx d 8 9B F7 F6 FF 30 00 8D C0 
47608.038200 1 5601067x Rx d 8 34 03 C3 D7 EF FC 6C CE 
47608.041200 1 5601065x Rx d 8 FC 16 D5 DB 4B 2A B2 15 
47608.041200 1 5601066x Rx d 8 DC 28 78 E9 C6 1B DF 21 
47608.042200 1 5601069x Rx d 8 9B F7 F6 FF 30 00 8D C0 
47608.043200 1 5601067x Rx d 8 34 03 C4 D7 EF FC 6C CE 
47608.046200 1 5601065x Rx d 8 FC 16 D6 DB 4B 2A B2 15 
47608.046200 1 5601066x Rx d 8 DC 28 77 E9 C6 1B DF 21 
47608.047200 1 5601069x Rx d 8 9B F7 F6 FF 2F 00 8D C0 
47608.048200 1 5601067x Rx d 8 34 03 C4 D7 EF FC 6C CE 
47608.051200 1 5601065x Rx d 8 FC 16 D5 DB 4B 2A B2 15 
47608.052200 1 5601066x Rx d 8 DC 28 77 E9 C6 1B DE 21 
47608.052200 1 5601069x Rx d 8 9B F7 F6 FF 2F 00 8D C0 
47608.053200 1 5601067x Rx d 8 34 03 C4 D7 EF FC 6B CE 
47608.056200 1 5601065x Rx d 8 FB 16 D5 DB 4C 2A B1 15 
47608.057200 1 5601066x Rx d 8 DC 28 77 E9 C6 1B DE 21 
47608.057200 1 5601069x Rx d 8 9B F7 F6 FF 2E 00 8D C0 
47608.059200 1 5601067x Rx d 8 34 03 C4 D7 EF FC 6B CE 
47608.061200 1 5601065x Rx d 8 FB 16 D5 DB 4C 2A B1 15 
47608.062200 1 5601066x Rx d 8 DC 28 77 E9 C7 1B DE 21 
47608.062200 1 5601069x Rx d 8 9B F7 F6 FF 2E 00 8D C0 
47608.063200 1 5601067x Rx d 8 34 03 C4 D7 EF FC 6B CE 
47608.066200 1 5601065x Rx d 8 FA 16 D5 DB 4D 2A B1 15 
47608.067200 1 5601066x Rx d 8 DB 28 77 E9 C7 1B DE 21 
47608.067200 1 5601069x Rx d 8 9B F7 F6 FF 2D 00 8D C0 
47608.069200 1 5601067x Rx d 8 34 03 C4 D7 EF FC 6B CE 
47608.071200 1 5601065x Rx d 8 FA 16 D5 DB 4D 2A B1 15 
47608.072200 1 5601066x Rx d 8 DB 28 77 E9 C7 1B DE 21 
47608.072200 1 5601069x Rx d 8 9B F7 F6 FF 2D 00 8D C0 
47608.074200 1 5601067x Rx d 8 33 03 C5 D7 EF FC 6B CE 
47608.076200 1 5601065x Rx d 8 FA 16 D5 DB 4D 2A B1 15 
47608.077200 1 5601066x Rx d 8 DB 28 77 E9 C7 1B DE 21 
47608.077200 1 5601069x Rx d 8 9B F7 F6 FF 2C 00 8D C0 
47608.079200 1 5601067x Rx d 8 33 03 C5 D7 EF FC 6B CE 
47608.081200 1 5601065x Rx d 8 F9 16 D5 DB 4D 2A B0 15 
47608.082200 1 5601066x Rx d 8 DB 28 77 E9 C8 1B DE 21 
47608.082200 1 5601069x Rx d 8 9B F7 F6 FF 2C 00 8D C0 
47608.084200 1 5601067x Rx d 8 33 03 C5 D7 EF FC 6B CE 
47608.086200 1 5601065x Rx d 8 F9 16 D4 DB 4E 2A B0 15 
47608.087200 1 5601066x Rx d 8 DB 28 77 E9 C8 1B DE 21 
47608.088200 1 5601069x Rx d 8 9B F7 F6 FF 2C 00 8D C0 
47608.089200 1 5601067x Rx d 8 33 03 C5 D7 EF FC 6B CE 
47608.091200 1 5601065x Rx d 8 F9 16 D4 DB 4E 2A AF 15 
47608.092200 1 5601066x Rx d 8 DB 28 77 E9 C8 1B DE 21 
47608.093200 1 5601069x Rx d 8 9B F7 F6 FF 2B 00 8D C0 
47608.094200 1 5601067x Rx d 8 33 03 C5 D7 EE FC 6B CE 
47608.096200 1 5601065x Rx d 8 F8 16 D4 DB 4E 2A AF 15 
47608.097200 1 5601066x Rx d 8 DB 28 77 E9 C8 1B DE 21 
47608.098200 1 5601069x Rx d 8 9B F7 F6 FF 2B 00 8D C0 
47608.099200 1 5601067x Rx d 8 32 03 C5 D7 EE FC 6A CE 
47608.102200 1 5601065x Rx d 8 F8 16 D4 DB 4E 2A AF 15 
47608.102200 1 5601066x Rx d 8 DB 28 77 E9 C9 1B DE 21 
47608.103200 1 5601069x Rx d 8 9B F7 F5 FF 2B 00 8D C0 
47608.104200 1 5601067x Rx d 8 32 03 C6 D7 EE FC 6A CE 
47608.107200 1 5601065x Rx d 8 F8 16 D4 DB 4E 2A AE 15 
47608.107200 1 5601066x Rx d 8 DB 28 77 E9 C9 1B DE 21 
47608.108200 1 5601069x Rx d 8 9B F7 F5 FF 2A 00 8D C0 
47608.109200 1 5601067x Rx d 8 31 03 C6 D7 EE FC 6A CE 
47608.112200 1 5601065x Rx d 8 F7 16 D4 DB 4F 2A AE 15 
47608.112200 1 5601066x Rx d 8 DB 28 78 E9 C9 1B DE 21 
47608.113200 1 5601069x Rx d 8 9B F7 F5 FF 2A 00 8D C0 
47608.114200 1 5601067x Rx d 8 31 03 C6 D7 EE FC 6A CE 
47608.117200 1 5601065x Rx d 8 F7 16 D4 DB 4F 2A AE 15 
47608.117200 1 5601066x Rx d 8 DB 28 78 E9 CA 1B DE 21 
47608.118200 1 5601069x Rx d 8 9A F7 F5 FF 29 00 8D C0 
47608.119200 1 5601067x Rx d 8 31 03 C7 D7 EE FC 6A CE 
47608.122200 1 5601065x Rx d 8 F7 16 D4 DB 4F 2A AE 15 
47608.122200 1 5601066x Rx d 8 DA 28 78 E9 CA 1B DE 21 
47608.123200 1 5601069x Rx d 8 9A F7 F4 FF 29 00 8D C0 
47608.124200 1 5601067x Rx d 8 31 03 C7 D7 EE FC 69 CE 
47608.127200 1 5601065x Rx d 8 F7 16 D4 DB 50 2A AE 15 
47608.127200 1 5601066x Rx d 8 DA 28 78 E9 CA 1B DE 21 
47608.128200 1 5601069x Rx d 8 9A F7 F4 FF 29 00 8D C0 
47608.129200 1 5601067x Rx d 8 31 03 C7 D7 ED FC 69 CE 
47608.132200 1 5601065x Rx d 8 F6 16 D4 DB 50 2A AD 15 
47608.133200 1 5601066x Rx d 8 DA 28 78 E9 CA 1B DD 21 
47608.133200 1 5601069x Rx d 8 9A F7 F4 FF 28 00 8D C0 
47608.134200 1 5601067x Rx d 8 30 03 C7 D7 ED FC 69 CE 
47608.137200 1 5601065x Rx d 8 F6 16 D4 DB 50 2A AD 15 
47608.138200 1 5601066x Rx d 8 DA 28 78 E9 CB 1B DD 21 
47608.138200 1 5601069x Rx d 8 99 F7 F4 FF 28 00 8D C0 
47608.139200 1 5601067x Rx d 8 30 03 C7 D7 ED FC 69 CE 
47608.142200 1 5601065x Rx d 8 F6 16 D4 DB 50 2A AC 15 
47608.143200 1 5601066x Rx d 8 DA 28 78 E9 CB 1B DE 21 
47608.143200 1 5601069x Rx d 8 99 F7 F4 FF 28 00 8D C0 
47608.145200 1 5601067x Rx d 8 30 03 C7 D7 ED FC 69 CE 
47608.147200 1 5601065x Rx d 8 F6 16 D4 DB 51 2A AC 15 
47608.148200 1 5601066x Rx d 8 DA 28 78 E9 CB 1B DD 21 
47608.148200 1 5601069x Rx d 8 99 F7 F4 FF 27 00 8D C0 
47608.150200 1 5601067x Rx d 8 30 03 C7 D7 ED FC 69 CE 
47608.152200 1 5601065x Rx d 8 F5 16 D4 DB 51 2A AC 15 
47608.153200 1 5601066x Rx d 8 DA 28 78 E9 CB 1B DD 21 
47608.153200 1 5601069x Rx d 8 99 F7 F4 FF 27 00 8D C0 
47608.155200 1 5601067x Rx d 8 30 03 C8 D7 ED FC 69 CE 
47608.157200 1 5601065x Rx d 8 F5 16 D3 DB 51 2A AB 15 
47608.158200 1 5601066x Rx d 8 D9 28 77 E9 CC 1B DD 21 
47608.158200 1 5601069x Rx d 8 98 F7 F4 FF 26 00 8D C0 
47608.160200 1 5601067x Rx d 8 30 03 C8 D7 ED FC 69 CE 
47608.162200 1 5601065x Rx d 8 F5 16 D3 DB 51 2A AB 15 
47608.163200 1 5601066x Rx d 8 D9 28 78 E9 CC 1B DD 21 
47608.163200 1 5601069x Rx d 8 98 F7 F4 FF 26 00 8D C0 
47608.165200 1 5601067x Rx d 8 2A 03 B3 D7 E7 FC 79 CE 
47608.167200 1 5601065x Rx d 8 F4 16 D2 DB 51 2A AB 15 
47608.168200 1 5601066x Rx d 8 D9 28 78 E9 CC 1B DD 21 
47608.168200 1 5601069x Rx d 8 98 F7 F4 FF 25 00 8D C0 
47608.170200 1 5601067x Rx d 8 29 03 B3 D7 E7 FC 79 CE 
47608.173200 1 5601065x Rx d 8 F4 16 D2 DB 51 2A AB 15 
47608.173200 1 5601066x Rx d 8 D9 28 78 E9 CC 1B DD 21 
47608.174200 1 5601069x Rx d 8 98 F7 F3 FF 25 00 8D C0 
47608.175200 1 5601067x Rx d 8 29 03 B3 D7 E7 FC 79 CE 
47608.178200 1 5601065x Rx d 8 F3 16 D2 DB 52 2A AA 15 
47608.178200 1 5601066x Rx d 8 D9 28 78 E9 CD 1B DD 21 
47608.179200 1 5601069x Rx d 8 98 F7 F3 FF 24 00 8D C0 
47608.180200 1 5601067x Rx d 8 29 03 B3 D7 E7 FC 79 CE 
47608.183200 1 5601065x Rx d 8 F3 16 D2 DB 52 2A AA 15 
47608.183200 1 5601066x Rx d 8 D9 28 78 E9 CD 1B DD 21 
47608.184200 1 5601069x Rx d 8 98 F7 F3 FF 24 00 8D C0 
47608.185200 1 5601067x Rx d 8 28 03 B3 D7 E7 FC 79 CE 
47608.188200 1 5601065x Rx d 8 F2 16 D2 DB 53 2A AA 15 
47608.188200 1 5601066x Rx d 8 D9 28 78 E9 CD 1B DD 21 
47608.189200 1 5601069x Rx d 8 98 F7 F3 FF 23 00 8D C0 
47608.190200 1 5601067x Rx d 8 28 03 B4 D7 E7 FC 79 CE 
47608.193200 1 5601065x Rx d 8 F2 16 D2 DB 53 2A AA 15 
47608.193200 1 5601066x Rx d 8 D8 28 77 E9 CD 1B DD 21 
47608.194200 1 5601069x Rx d 8 97 F7 F3 FF 23 00 8D C0 
47608.195200 1 5601067x Rx d 8 28 03 B4 D7 E7 FC 79 CE 
47608.198200 1 5601065x Rx d 8 F1 16 D2 DB 53 2A A9 15 
47608.198200 1 5601066x Rx d 8 D8 28 78 E9 CD 1B DD 21 
47608.199200 1 5601069x Rx d 8 97 F7 02 00 38 00 8D C0 
47608.200200 1 5601067x Rx d 8 28 03 B4 D7 E7 FC 79 CE 
47608.203200 1 5601065x Rx d 8 F1 16 D2 DB 53 2A A9 15 
47608.203200 1 5601066x Rx d 8 D8 28 78 E9 CE 1B DD 21 
47608.204200 1 5601069x Rx d 8 97 F7 01 00 37 00 8D C0 
47608.205200 1 5601067x Rx d 8 28 03 B4 D7 E7 FC 79 CE 
47608.208200 1 5601065x Rx d 8 F1 16 D2 DB 54 2A A8 15 
47608.209200 1 5601066x Rx d 8 D8 28 78 E9 CE 1B DD 21 
47608.209200 1 5601069x Rx d 8 96 F7 01 00 37 00 8D C0 
47608.210200 1 5601067x Rx d 8 28 03 B4 D7 E7 FC 79 CE 
47608.213200 1 5601065x Rx d 8 F0 16 D2 DB 54 2A A8 15 
47608.214200 1 5601066x Rx d 8 D8 28 77 E9 CE 1B DD 21 
47608.214200 1 5601069x Rx d 8 96 F7 00 00 36 00 8D C0 
47608.215200 1 5601067x Rx d 8 28 03 B4 D7 E7 FC 79 CE 
47608.218200 1 5601065x Rx d 8 F0 16 D2 DB 54 2A A8 15 
47608.219200 1 5601066x Rx d 8 D7 28 77 E9 CE 1B DD 21 
47608.219200 1 5601069x Rx d 8 96 F7 00 00 36 00 8D C0 
47608.220200 1 5601067x Rx d 8 28 03 B4 D7 E7 FC 79 CE 
47608.223200 1 5601065x Rx d 8 F0 16 D2 DB 55 2A A7 15 
47608.224200 1 5601066x Rx d 8 D7 28 77 E9 CE 1B DD 21 
47608.224200 1 5601069x Rx d 8 96 F7 00 00 35 00 8D C0 
47608.226200 1 5601067x Rx d 8 28 03 B4 D7 E7 FC 78 CE 
47608.228200 1 5601065x Rx d 8 EF 16 D2 DB 55 2A A7 15 
47608.229200 1 5601066x Rx d 8 D7 28 77 E9 CE 1B DD 21 
47608.229200 1 5601069x Rx d 8 96 F7 FF FF 35 00 8D C0 
47608.231200 1 5601067x Rx d 8 27 03 B5 D7 E7 FC 78 CE 
47608.233200 1 5601065x Rx d 8 EF 16 D1 DB 55 2A A6 15 
47608.234200 1 5601066x Rx d 8 D7 28 77 E9 CE 1B DE 21 
47608.234200 1 5601069x Rx d 8 96 F7 FF FF 34 00 8D C0 
47608.236200 1 5601067x Rx d 8 27 03 B5 D7 E7 FC 78 CE 
